#Digilent WaveForms Network Analyzer - Bode
#Device Name: Discovery2NI
#Serial Number: SN:210321A36A5A
#Date Time: 2020-02-14 13:13:18.162
#Start: 5 Hz
#Stop: 50 Hz
#Steps: 151
#Wavegen: Wavegen1
#Amplification: 1 X
#Settle: 10 ms
#MinPeriods: 16 
#Channel: Channel 1
#Range: 5.4125 V
#Offset: -0.000188385 V
#Relative: no
#Channel: Channel 2
#Range: 5.49784 V
#Offset: 5.94039e-06 V
#Relative: yes

Frequency (Hz),Channel 1 Magnitude (dB),Channel 2 Magnitude (dB),Channel 2 Phase (*)
5,-23.81563468100446,3.275033583645763,1.659749539220485
5.077344962165402,-23.25224856419538,3.403012938534817,1.521069835505244
5.155886372965276,-22.84513882545154,3.559760301981485,1.433030255263233
5.235642740254498,-22.28346525231842,3.655065490383653,1.330420275441973
5.316632858185805,-21.66751879481385,3.859884084644571,0.9583205407762936
5.398875811638549,-20.97790449866572,4.066762895450383,0.5286193182499659
5.482390980715925,-20.28815774412458,4.231943689687053,0.0004299621628405248
5.567198045311807,-19.80805213830265,4.450265959213489,-0.1462344379161067
5.653316989748195,-19.22952572438988,4.575504831293874,-0.3296120303978967
5.740768107484414,-18.93982645121411,4.792167229285243,-0.1716727006134704
5.829572005899158,-18.32245170178591,4.930858176267248,-0.9402770924162667
5.91974961114651,-17.51559414458084,5.101961898549981,-1.145150994183425
6.011322173087064,-16.6420962414467,5.256805776581258,-1.324667843553399
6.104311270295356,-15.94003998983436,5.457232389850577,-1.161460683854507
6.198738815144722,-15.35382404708845,5.717401293511736,-1.147102832619947
6.294627058970836,-14.69825283598447,5.970731544809963,-1.101258306293602
6.391998597315118,-14.05984459257158,6.215827134424413,-0.9970735530011581
6.490876375249245,-13.45669990646204,6.526557365923608,-0.9356950868985479
6.591283692782035,-13.04342199717789,6.887593418972006,-0.8058271898854628
6.693244210349966,-12.87152607902739,7.300290573598517,-0.8506310350157662
6.796781954392628,-12.84607885827528,7.753655197897745,-0.9192794757985325
6.901921323014425,-13.03724516865955,8.247236899448836,-1.072478914350754
7.008687091733851,-13.41492056867098,8.808311781404214,-1.057164432958707
7.117104419321708,-14.15830049635827,9.417614613090157,-1.221888672703146
7.227198853729639,-14.99729429187631,10.07044082632342,-1.45338075202605
7.338996338110347,-15.92287067235575,10.80608889439983,-1.721016765211843
7.45252321693098,-17.09873720226975,11.67609215402311,-1.938310677231442
7.56780624218104,-18.50649963965505,12.64661578488482,-2.327982735628865
7.684872579676356,-20.08588255865871,13.7837203025833,-3.004310577693474
7.803749815460558,-21.91171205320124,15.18486505410539,-3.727414437138926
7.924465962305567,-23.9342496388686,16.88969008339186,-4.765651582123794
8.047049466312673,-26.56786386399381,19.127320638912,-6.751071661337285
8.171529213615688,-30.15776551836685,22.28266946489047,-10.63810802739596
8.297934537187803,-35.73512786720342,27.40815009155047,-21.47111818625456
8.426295223753758,-44.54804020392004,35.65593529419581,-82.61649629805166
8.556641520808906,-37.24072919723842,28.15434870822686,-155.4555414992468
8.689004143746876,-31.35312425983851,21.97366535475767,-169.6466153929166
8.823414283097501,-27.709314431323,18.10037655087382,-172.0819815272891
8.959903611876669,-25.17205602890092,15.33216568880539,-174.4026968724712
9.098504293049919,-23.23767292811451,13.18521792939986,-175.4388872901371
9.239248987111454,-21.49110146725661,11.26687338433855,-176.3980652765553
9.382170859780425,-20.07872771155272,9.638182355906986,-176.9247373043517
9.527303589816237,-18.77386441778529,8.175843701935218,-177.3096659276524
9.67468137695476,-17.59660065674714,6.845039917792171,-177.712261546212
9.824338949967338,-16.47813705541664,5.642400885157965,-177.9810509043501
9.976311574844399,-15.3875124580288,4.499407376277639,-177.9990064244491
10.13063506310572,-14.30671276091258,3.400848717049665,-178.1474619933489
10.2873457802392,-13.34675931573397,2.390168711498863,-178.2319144816707
10.4464806542702,-12.42513588651136,1.410088565896468,-178.3065317056183
10.60807718446342,-11.48398580711095,0.4465096452346753,-178.3717290604214
10.77217345015942,-10.59691191826626,-0.5106185897177257,-178.3837757102663
10.93880811974776,-9.737042699913998,-1.440624889011541,-178.36342178295
11.10802045977906,-9.022945543176894,-2.34797436407705,-178.3307088252618
11.27985034421788,-8.309114699959737,-3.267103140554939,-178.2686336080957
11.45433826383887,-7.687211935672638,-4.189919572745192,-178.2161739175403
11.63152533576813,-7.110195244312126,-5.125380010606516,-178.0300819085137
11.81145331317231,-6.654271469020755,-6.080906179747345,-177.8935541272345
11.99416459509745,-6.311995444461075,-7.052827023187534,-177.7953367035649
12.17970223646014,-6.080086753774441,-8.052157353306811,-177.6527029191197
12.36810995819311,-5.996050288155614,-9.060844526700777,-177.5991757941327
12.5594321575479,-5.980481471108561,-10.13012469562324,-177.4624371635514
12.7537139185568,-5.948471904268887,-11.26715113054646,-177.2905720169634
12.95100102265662,-5.962045316324152,-12.42601699998309,-177.3456367263371
13.15133995947691,-6.232972793887095,-13.75153627810042,-177.203908479075
13.35477793779493,-6.546488745364535,-15.25033381092516,-177.8221562044789
13.56136289666014,-6.910848882425942,-16.99467299455652,-177.3053686735183
13.77114351669083,-7.338571567522988,-19.04309450216663,-174.3883311206762
13.98416923154539,-7.703344002884863,-20.41719020084405,-169.0783545595685
14.20049023957108,-7.709167227548651,-24.76159514648067,175.1338111526751
14.42015751563303,-7.809476748250592,-28.96703170090402,-173.7774245260759
14.64322282312618,-8.253000445939877,-45.80089906190469,-135.8674814180173
14.86973872617303,-8.72244905929383,-32.1897357792915,-0.9060691574225928
15.09975860201008,-8.860170392508284,-25.42334718096772,2.110213970856869
15.33333665356592,-8.739178340809556,-22.18369713891553,-2.359193003615616
15.5705279222338,-8.638450260081655,-19.85114240379806,-1.945720022191153
15.8113883008419,-8.725170841917805,-18.09541322415979,-1.784165911854501
16.05597454682411,-8.960086645300615,-16.7432735568451,-1.828851150457524
16.30434429559466,-9.178911032889893,-15.473309535809,-1.415688914628248
16.55655607412956,-9.316086594578618,-14.39212698130588,-1.646747964753715
16.81266931475813,-9.430040279972193,-13.37041452177766,-1.734136914944692
17.07274436916801,-9.630870298519504,-12.43234354310144,-1.617145949897434
17.33684252262658,-9.841275547717441,-11.55454222266897,-1.614943797373691
17.60502600842259,-10.01896779664978,-10.72456256205627,-1.565904851935336
17.87735802253107,-10.27254949657457,-9.958234015843596,-1.652579774488999
18.15390273850507,-10.60276933858776,-9.178546093843625,-1.699485607992534
18.43472532259787,-10.76236948276469,-8.478114239980385,-1.909759504628909
18.71989194911906,-10.68660295462241,-7.78408276350949,-1.766946834151298
19.00946981602806,-10.56731052844603,-7.057404353047422,-1.403749818300923
19.30352716076906,-10.6438890543,-6.310419934178948,-1.056306108649352
19.60213327635076,-10.73837161687205,-5.524823145420114,-1.0501476332566
19.90535852767486,-10.95012640853226,-4.755731971228056,-0.8401965019304214
20.21327436811722,-11.0461126115993,-3.930073784380483,-0.6928013864894496
20.52595335636539,-11.18302313803944,-3.019713764052145,-0.5670101647859198
20.84346917351677,-11.27306323491459,-2.139158360761178,-0.31764068276226
21.16589664044104,-11.46262582942882,-1.094451544577298,-0.972249781432426
21.49331173541138,-11.65136871858478,-0.1424931252452603,-3.080023516967117
21.8257916120083,-11.84296419297985,0.7129786100071569,-0.8147742053667031
22.16341461730044,-12.02786416170793,1.54849541130717,-1.094775473622263
22.50626031030668,-12.23942249159195,3.053191254760201,5.708650431868278
22.85440948074375,-12.80404359047855,6.379627914396311,3.033819382504845
23.20794416806389,-13.20589728958801,8.332155716915462,4.265366557529774
23.56694768078702,-14.28202575474649,12.30410818336159,-3.562128399854871
23.93150461613192,-15.63363330313565,15.92994780918791,-27.40203939820182
24.30170087995108,-17.42731473410467,19.94446502817745,-34.35695856420418
24.67762370697403,-16.53319516430115,23.42922902001081,-110.0120249270279
25.05936168136361,-7.056443556383318,17.50928533397311,-158.6017341050902
25.44700475759045,-6.067842717068176,13.96449493795836,163.5667584665214
25.84064428163018,-11.12334596798483,7.373488385691028,-137.2502781188202
26.24037301248863,-11.43281050577525,1.471449698903305,121.9474938619945
26.64628514406002,-11.86807434749172,-3.787169821977399,120.5794562884184
27.05847632732318,-11.80892158538652,3.139436727612818,-133.0905724666522
27.47704369288122,-10.90175654428243,4.169407455598051,168.5175996441419
27.90208587384982,-11.47596011161753,2.225226765402546,-162.243009408541
28.33370302909956,-11.74694671600465,0.06910291347521304,-165.008451790338
28.77199686685785,-11.60057069102132,-0.0005569255422723412,-178.5382756096993
29.21707066867588,-11.86980962305676,-2.960736960038126,171.6504737062332
29.6690293137664,-11.87938412824626,-2.729794407133792,-178.5447146208642
30.12797930371789,-12.00114058508803,-4.165328652376054,-178.0940422121066
30.59402878759109,-12.09100791495898,-4.864230289229866,-178.8658623284939
31.06728758740379,-12.12626673713514,-5.310811882569437,-178.4769431458354
31.54786722400967,-12.25537699722581,-5.889440964488521,-179.791376131381
32.03588094337768,-12.3177849571743,-6.454874653188785,-179.5733049103164
32.53144374327786,-12.3365369988408,-6.9882487100293,-179.4946400401612
33.0346724003798,-12.41745882371987,-7.510666820813373,-179.8703350325229
33.54568549777056,-12.48392341754741,-7.986855274398829,-179.8774781131485
34.06460345289807,-12.54512986414943,-8.458291031369571,-179.8800022368844
34.59154854594682,-12.60267659129322,-8.907873117121284,-179.9909703135914
35.12664494865261,-12.63605652238608,-9.347833123530929,-179.9399465995864
35.67001875356281,-12.70855437628007,-9.76187684597093,179.9199933325595
36.2217980037495,-12.74755530309529,-10.17818885761566,-179.9976803527678
36.78211272298207,-12.81737170780954,-10.57623570298913,179.9558672714079
37.35109494636657,-12.82134361184891,-10.95424232285331,179.9200905347941
37.92887875145919,-12.87213897422691,-11.33958111299093,179.8222256697586
38.51560028986074,-12.93795782288672,-11.70109750470038,179.7988345545082
39.11139781930012,-12.92331296375575,-12.13041268814354,179.9237319128665
39.71641173621408,-12.90161176256519,-12.38313093599576,-179.9112431775586
40.33078460883067,-12.95265626299675,-12.80564283447004,179.3884880992463
40.95466121076486,-13.01121802169543,-13.06340368898018,179.4557480589785
41.58818855513356,-13.08047087411111,-13.36161446555105,179.8013053219806
42.23151592919842,-13.11348933159777,-13.71135067473694,179.2292843937011
42.8847949295447,-13.11909640564963,-14.15191876763236,179.3456102444371
43.54817949780403,-13.16578519946911,-14.38709621295674,179.3418774896374
44.22182595692998,-13.17599499863175,-14.696507537864,179.2652837655164
44.90589304803473,-13.15940436142954,-14.97139675213556,179.3913448781485
45.60054196779548,-13.22718605927228,-15.28140476306513,179.2912576124403
46.30593640643967,-13.21215621789585,-15.58838762012477,179.6322703461597
47.02224258631759,-13.21845194226773,-15.84593387511478,179.8893158423759
47.74962930107179,-13.24627629198354,-16.09669007293926,179.563412213507
48.48826795541247,-13.29637741755435,-16.35102432550729,179.2474858982758
49.23833260550791,-13.27039142293503,-16.60094242543295,-179.9364617810767
50,-13.30083071315769,-16.90377400812296,179.9437446882701
