#Digilent WaveForms Network Analyzer - Bode
#Device Name: Discovery2NI
#Serial Number: SN:210321A36A5A
#Date Time: 2020-02-11 15:31:56.838
#Start: 5 Hz
#Stop: 50 Hz
#Steps: 151
#Wavegen: Wavegen1
#Amplification: 1 X
#Settle: 10 ms
#MinPeriods: 16 
#Channel: Channel 1
#Range: 5.4125 V
#Offset: -0.000188385 V
#Relative: no
#Channel: Channel 2
#Range: 5.49784 V
#Offset: 5.94039e-06 V
#Relative: yes

Frequency (Hz),Channel 1 Magnitude (dB),Channel 2 Magnitude (dB),Channel 2 Phase (*)
5,-22.62028681938223,3.380352469029826,1.220503008719731
5.077344962165402,-22.21159016832016,3.507632217029494,0.950964494321255
5.155886372965276,-20.89979267914042,3.677592603651522,0.921502190569413
5.235642740254498,-20.26816541684385,3.838247384510616,0.7419015891806993
5.316632858185805,-19.67661818108088,3.99423274405568,0.6996478887544839
5.398875811638549,-19.13314120370555,4.179987361145004,0.6838082733066528
5.482390980715925,-18.67873575455728,4.384568376532529,0.5621021473286021
5.567198045311807,-18.24215375568144,4.581350967878321,0.4492549852118231
5.653316989748195,-17.78080838716897,4.773947122295803,0.3832742504466324
5.740768107484414,-17.21654954332882,5.031514073141937,0.4519077671037905
5.829572005899158,-16.43946975919352,5.260957320643838,0.2881261014140364
5.91974961114651,-15.69292343934075,5.539227131998411,0.1884553441993262
6.011322173087064,-14.89008812982797,5.841643602028413,0.1458448499378733
6.104311270295356,-14.31094416435859,6.146736164730085,0.05238783164730876
6.198738815144722,-13.70464240095391,6.491437774847439,-0.1258299739976572
6.294627058970836,-13.15275625048859,6.90594175398969,-0.2171425986258768
6.391998597315118,-12.72683861647072,7.354730201111959,-0.5666333575152152
6.490876375249245,-12.53978212239517,7.832475920931801,-0.9921685097049533
6.591283692782035,-12.73409406055601,8.349180211885288,-1.62048853821392
6.693244210349966,-12.80796732001269,8.923166235980471,-1.234801642793684
6.796781954392628,-13.37006362749012,9.541211244275718,-1.460635487687099
6.901921323014425,-14.36137862889324,10.24277749348352,-1.901134399031875
7.008687091733851,-15.45327516562174,11.02470301795912,-2.61914255822165
7.117104419321708,-16.62039779621604,11.8977653964308,-3.072697521835224
7.227198853729639,-18.18625894377801,12.89884834627076,-3.940508409688178
7.338996338110347,-19.77266404220994,14.05678309717231,-5.414337245168468
7.45252321693098,-21.83366749814705,15.42879362380944,-6.941655198821763
7.56780624218104,-24.36804015038004,17.13376761557917,-9.56460758704111
7.684872579676356,-27.14371862855285,19.36365190745157,-13.31666491528441
7.803749815460558,-30.62517687738678,22.66347670100883,-20.22707469617014
7.924465962305567,-35.74704590601601,27.53137148763739,-41.18052586272896
8.047049466312673,-38.3066980446599,29.6198634720628,-105.3150056574196
8.171529213615688,-32.89933271272508,24.00668827900777,-145.5344822295768
8.297934537187803,-28.75613567466328,19.68935636941809,-159.580514490073
8.426295223753758,-25.86060416059456,16.62294658629052,-165.0128305004527
8.556641520808906,-23.58611891614714,14.05114450454296,-168.0791677155578
8.689004143746876,-21.80676171380771,11.95639504654294,-169.8314792668273
8.823414283097501,-20.38893918934065,10.21176106300003,-171.2510531515733
8.959903611876669,-19.10944754473442,8.622833946930911,-171.9756188418988
9.098504293049919,-17.90033162161345,7.173987912969332,-172.6657803506592
9.239248987111454,-16.87587370815676,5.807403712749275,-173.0470474996132
9.382170859780425,-15.82132684136063,4.549635593195915,-173.4839908581848
9.527303589816237,-14.90849160709165,3.367116731302595,-173.8589619169765
9.67468137695476,-14.03651786757715,2.261193933434677,-174.0087595020095
9.824338949967338,-13.08614683631382,1.19072218801822,-174.2845160862553
9.976311574844399,-12.12071625831078,0.1064725401954144,-174.5039099765999
10.13063506310572,-11.19818379932103,-0.9706666563684451,-174.590788855816
10.2873457802392,-10.18914443644531,-2.056417333528815,-174.600653184451
10.4464806542702,-9.168767512571689,-3.162343895661792,-174.7285355948436
10.60807718446342,-8.439705262996227,-4.252230377459408,-174.627342687868
10.77217345015942,-7.748856799043814,-5.334581124079754,-174.5727943617582
10.93880811974776,-7.182129203651223,-6.449190972732773,-174.5413655475338
11.10802045977906,-6.730859864671944,-7.63291703199243,-174.1780099453039
11.27985034421788,-6.289881760822666,-8.860727342123766,-173.5255215514181
11.45433826383887,-5.939665040591011,-10.206940510629,-172.6960457790306
11.63152533576813,-5.670985037858699,-11.26913628129428,-171.6031936370541
11.81145331317231,-5.432135587397557,-12.97977454998491,-171.9905745447
11.99416459509745,-5.381201577965396,-14.67701729603496,-170.303853923387
12.17970223646014,-5.367554687872385,-16.62987846326351,-168.3499998451047
12.36810995819311,-5.437762879111258,-18.88098149108293,-165.0463705232344
12.5594321575479,-5.567353039460031,-21.82261158928551,-160.0041457616249
12.7537139185568,-5.723916246223869,-25.60127198423834,-149.3005436633202
12.95100102265662,-5.96065482598667,-30.33775524021173,-121.4990990644174
13.15133995947691,-6.253992326319311,-31.85060066172401,-62.39957888069509
13.35477793779493,-6.481840495305349,-27.31305665037345,-24.23798107149203
13.56136289666014,-6.711899387081839,-22.6847243088046,-18.71333250308031
13.77114351669083,-6.993492039744384,-20.59746460026876,-11.63785353556658
13.98416923154539,-7.445086411757132,-18.62323477350702,-8.968524893042456
14.20049023957108,-7.77585042417762,-17.01156063371055,-6.712054065289099
14.42015751563303,-7.823865431362207,-15.69807468172811,-5.182763105126668
14.64322282312618,-7.992496857582618,-14.45636796024667,-3.915620280282099
14.86973872617303,-8.096323440676635,-13.27668313129328,-3.265395235975433
15.09975860201008,-8.100567462262092,-12.26032807223166,-2.571972179166245
15.33333665356592,-8.288361015644274,-11.33007957683331,-2.145035818786738
15.5705279222338,-8.332172118822688,-10.4603020895857,-1.974850614969043
15.8113883008419,-8.206056051867513,-9.642852087949702,-1.736740029195953
16.05597454682411,-8.328150973643339,-8.905274800352101,-1.394171929219837
16.30434429559466,-8.611167066741347,-8.213733684295336,-1.286207627200596
16.55655607412956,-8.908767178348343,-7.50768404960462,-1.138219072190521
16.81266931475813,-9.209509662100084,-6.815875044672603,-1.131793191274653
17.07274436916801,-9.48455726614473,-6.126291298169903,-1.040865813508191
17.33684252262658,-9.750510454123301,-5.450251594498278,-1.124996491311656
17.60502600842259,-10.0106655339862,-4.746018834188152,-1.106890287312496
17.87735802253107,-10.29262512169713,-4.050396920388797,-1.111763458195099
18.15390273850507,-10.58986626318459,-3.324075356338128,-1.152411902945346
18.43472532259787,-10.89072686551033,-2.577456590734972,-1.178483530646702
18.71989194911906,-10.90729125297134,-1.798058873519484,-1.194193936748251
19.00946981602806,-10.80052244961568,-0.9336683420131975,-1.163492930876743
19.30352716076906,-10.91997830313813,0.003065900683247305,-0.884286488422461
19.60213327635076,-11.14390271136405,1.061119083339012,-1.864746194094423
19.90535852767486,-11.30090837936697,1.822055473904844,-3.161648830911702
20.21327436811722,-11.50310875633138,3.010845863948142,-2.213052901343046
20.52595335636539,-11.63586239612904,3.98013340931758,-0.9040910899357755
20.84346917351677,-11.86957670949271,5.870362894329161,4.536189360121128
21.16589664044104,-12.46887930878558,8.724662898970251,0.4227812519963408
21.49331173541138,-13.22839033898509,11.69211093085983,0.3783590953692055
21.8257916120083,-14.91199287123171,16.16989619022349,-11.83442677074964
22.16341461730044,-16.34632544805562,19.32415743706352,-37.95798971753244
22.50626031030668,-19.91552699307772,26.28563684646563,-75.11709179639963
22.85440948074375,-11.41953629021432,21.29520567950042,-142.7775802913574
23.20794416806389,-4.917315464977071,17.45634878245811,-164.6049168255995
23.56694768078702,-3.176475672087351,14.24676136023417,173.8666095927583
23.93150461613192,-10.04993262429084,2.553312626256683,-131.2197848801121
24.30170087995108,-9.168017563278934,2.831943143421474,143.5753968000354
24.67762370697403,-9.687779797198194,-1.32281471634804,169.2061028522267
25.05936168136361,-9.510606964078942,3.664254190551165,-155.8423816096625
25.44700475759045,-9.179186469531199,3.07120017422897,173.7176844553096
25.84064428163018,-9.510356311204214,2.056485273425545,-173.0023460107159
26.24037301248863,-9.702620026327995,0.8121403370254922,-174.364802529002
26.64628514406002,-9.758737004266768,0.1046454972060115,178.8369312236841
27.05847632732318,-9.990985473266932,-1.930728551418915,175.2036840047937
27.47704369288122,-10.06920563588062,-2.217985447955674,-179.8055801739906
27.90208587384982,-10.18816117663625,-3.289010288047479,-179.9524796626588
28.33370302909956,-10.29602968393855,-3.979607518268751,-179.9853687416896
28.77199686685785,-10.39368252640418,-4.503875455849117,-179.1379106839634
29.21707066867588,-10.48582470792117,-4.993070171003739,-179.8317010181832
29.6690293137664,-10.58089618434948,-5.598079200029677,-179.7001104068292
30.12797930371789,-10.65880239880119,-6.144540689045394,-179.8576614983809
30.59402878759109,-10.73759594851779,-6.658044708558212,-179.8909327610417
31.06728758740379,-10.81510940320005,-7.164676328845879,-179.8563805045672
31.54786722400967,-10.88177023643264,-7.651984283032065,-179.9206494612424
32.03588094337768,-10.93726299885488,-8.119699979569036,-179.8893217854548
32.53144374327786,-10.99629671742766,-8.572023964375306,-179.8869207416272
33.0346724003798,-11.04559675283479,-9.003637536969634,-179.9082110861099
33.54568549777056,-11.09167839879143,-9.453954370424851,-179.9717238733359
34.06460345289807,-11.15099888465711,-9.850195553746492,179.9928831147654
34.59154854594682,-11.18960469476551,-10.27220323255747,179.8523926289565
35.12664494865261,-11.24182938884685,-10.71116727464183,179.9452285529575
35.67001875356281,-11.27755071347274,-11.13423399089312,-179.3639649444283
36.2217980037495,-11.33142886519866,-11.54474195613357,-179.6693364244561
36.78211272298207,-11.377775766998,-12.05172006477184,-177.3092715323565
37.35109494636657,-11.42074330699913,-11.80081095188685,-172.7973932548189
37.92887875145919,-11.44200818852828,-11.32407244566663,178.0087382675616
38.51560028986074,-11.50986426186574,-12.93440177060795,-176.878162289789
39.11139781930012,-11.53970948940789,-13.46477150855472,177.7494092614305
39.71641173621408,-11.5795362948371,-13.87120800604567,179.2558865143712
40.33078460883067,-11.63495846499129,-13.44211285014243,-175.8847878531454
40.95466121076486,-11.67115439749555,-13.87555392866234,175.8346507027719
41.58818855513356,-11.71715302873822,-13.62918416454514,178.7352043707541
42.23151592919842,-11.73920122832577,-14.03675203912889,178.7417362777544
42.8847949295447,-11.74757688107418,-14.78153613790746,177.0916087443252
43.54817949780403,-11.80435179237847,-15.12627547028724,-179.155555129686
44.22182595692998,-11.81502274518168,-15.43900870462067,178.4142400691008
44.90589304803473,-11.8435700911177,-15.53668344835069,178.2392310414297
45.60054196779548,-11.8540720385617,-15.95267606838777,178.5096817653931
46.30593640643967,-11.87957466161392,-16.19310283241363,179.6689227749002
47.02224258631759,-11.89439127080935,-16.37375449659266,179.1970410608403
47.74962930107179,-11.91370407185054,-16.60255499497193,179.0794764414397
48.48826795541247,-11.91740101086157,-16.99931915373344,179.25805445182
49.23833260550791,-11.94859158285473,-17.17690729313439,179.5518548596974
50,-11.9717506765672,-17.41805427209987,179.650477430202
