#Digilent WaveForms Network Analyzer - Bode
#Device Name: Discovery2NI
#Serial Number: SN:210321A36A5A
#Date Time: 2020-02-18 14:44:20.741
#Start: 50 Hz
#Stop: 200 Hz
#Steps: 151
#Wavegen: Wavegen1
#Amplification: 1 X
#Settle: 10 ms
#MinPeriods: 16 
#Channel: Channel 1
#Range: 5.4125 V
#Offset: -0.000188385 V
#Relative: no
#Channel: Channel 2
#Range: 5.49784 V
#Offset: 5.94039e-06 V
#Relative: yes

Frequency (Hz),Channel 1 Magnitude (dB),Channel 2 Magnitude (dB),Channel 2 Phase (*)
50.00000000000001,-26.96516184998559,10.27729258150131,-36.78268371777902
50.46424006059372,-27.49897210970742,10.15340276593798,-47.7230234124646
50.93279049786463,-27.82377763090333,8.794788726095241,-52.68041783771052
51.40569133280334,-28.29501593676252,8.257409936639414,-58.42927746455645
51.88298295798738,-28.23014256934338,6.48612266951091,-64.81910988934624
52.36470614103135,-27.49748600426887,6.094331484006441,-58.17260422948416
52.85090202806904,-27.314829626736,5.19299854473997,-60.98827872386164
53.3416121472679,-27.17065885577582,5.236278117608038,-62.54320501408324
53.83687841237617,-26.5689570051153,4.928704378992816,-58.33399728807331
54.33674312630292,-25.82580114405424,4.89380507135326,-56.81714380484888
54.84124898473131,-24.81627880767345,4.300478500599269,-53.26532252699042
55.35043907976544,-23.98419688568719,4.412686362100299,-50.27991570851903
55.86435690361101,-23.04725648291144,4.522079877085279,-49.65881054938664
56.38304635229024,-22.00180461308946,4.90498946446346,-44.68926293003139
56.90655172939114,-21.27045198162605,5.46016234534415,-43.94510848345544
57.43491774985176,-21.20878350182857,5.943908115945625,-43.85659309369214
57.96818954377949,-22.17147261089639,5.911216868535885,-46.53526017354763
58.50641266030572,-23.4126584073382,5.991337723504006,-49.22443921623967
59.04963307147653,-24.85927604457426,5.695845222057337,-54.62428998060827
59.59789717617932,-26.1563199289824,5.688490072207374,-58.3290281903521
60.15125180410584,-27.5768465153256,5.593677988378677,-62.7261449600577
60.70974421975236,-28.72263992183525,5.414367544562529,-66.85000826631236
61.2734221264565,-30.27262383743576,5.058683617770692,-71.07358046593777
61.84233367047188,-31.34779494337979,5.602625145363604,-72.90087621068842
62.41652744508062,-32.58053226107533,5.613794148218254,-79.63495061168885
62.99605249474367,-33.41169568674794,6.249585085319396,-82.32081209973595
63.58095831929016,-34.56874065965015,6.809639879228149,-90.10560425600161
64.17129487814522,-35.65702359853752,7.215040220305919,-94.94529206474458
64.76711259459735,-37.02567682686337,7.821328903452818,-104.8779940972269
65.36846236010527,-37.79034104531482,8.182826521417219,-111.8855851986908
65.97539553864472,-38.99096485550798,8.76859141474964,-119.8679671291997
66.5879639710958,-39.53297483741206,9.037031324158594,-132.8548745778598
67.20621997967088,-39.94382497369838,8.906021419441629,-143.5685004855138
67.8302163723836,-39.99855305702445,8.816948551724428,-155.676485151175
68.46000644755961,-39.67622266403234,8.341609505622822,-165.3245761578765
69.09564399838882,-39.24928577233878,7.735125457992945,-174.6724350946201
69.73718331752028,-38.64820781913117,6.589140669040178,179.7304872910843
70.3846792016995,-37.99585844099501,6.042655503842362,176.0065115074653
71.0381869564488,-37.278521438638,5.330332918852195,174.4913658917127
71.69776240079139,-36.5231176720544,4.909875099887818,172.5601169672676
72.3634618720189,-35.71817080754729,4.875379177288941,170.367550063944
73.03534223050364,-34.69248687314169,4.62769889338837,169.8443928461043
73.71346086455507,-33.94574081285674,4.553377544648747,168.5753775650313
74.39787569532173,-33.1573922508309,4.726848483814214,167.8631162564132
75.08864518173853,-32.55072610665826,4.648024014993227,165.3945613307683
75.78582832551992,-32.01381337229733,4.838992950495095,164.6378685739536
76.4894846761996,-31.38907769772597,5.037972663555843,163.5428522468513
77.1996743362168,-30.74517849984412,4.960893348203765,162.6403842501144
77.91645796605,-30.14479406360842,5.067183898599068,160.3129620844634
78.63989678939812,-29.61209528589234,5.362253981356843,159.7698261151904
79.37005259840998,-29.04884976896821,5.737993428932987,158.5109718385356
80.10698775896223,-28.17602132318366,5.840674187148194,156.9011583578176
80.85076521598623,-27.4853081699895,6.184012185828703,154.811992953232
81.60144849884456,-26.5685050303164,6.403680050170885,153.0313588014165
82.35910172675733,-25.57216050035887,6.687205399429168,151.2308709441168
83.12378961427879,-24.49955165258654,7.078996155101462,149.4082836542281
83.89557747682503,-23.37937612865559,7.400973596621919,148.1048277191446
84.67453123625273,-22.83993909749713,7.603105770412535,146.3618192231036
85.46071742648998,-22.87003927040519,7.480664056828369,144.7361854584855
86.25420319921908,-22.86558530194526,7.141720420286818,145.135604581504
87.05505632961243,-23.347063743926,6.962189311286201,148.2212999835757
87.8633452221214,-24.23663476389261,7.171598511126858,152.9037643199942
88.67913891631906,-25.55157172524629,7.799378120857725,156.9403294899325
89.50250709279725,-27.12727093515785,8.540926787058867,159.8610358829226
90.33352007911824,-28.96739639357848,9.632207403385287,161.9008332034691
91.17224885582169,-30.83881949862914,10.77436111144832,162.7924258545586
92.01876506248752,-32.41467582894023,11.78791730497504,163.1669423483198
92.87314100385487,-34.28438255889378,13.20601346000327,164.4824761219488
93.73544965599802,-36.63102271136665,15.11220717040211,162.9900620998696
94.60576467255959,-38.44775751059377,16.66345278759464,159.8528445681678
95.48416039104167,-41.00385465263513,18.93151721371693,155.3723845364612
96.37071183915521,-43.70158499663951,21.32922370293155,147.7582780432894
97.26549474122857,-48.04581081906659,25.37989313787143,130.1547552714262
98.16858552467546,-50.32326070224741,27.47354132909019,105.5738944319735
99.08006132652297,-49.78897576485679,26.73113290710453,57.96871633022717
100,-45.17996779677831,21.92377733281476,36.39491368811781
100.9284801211874,-42.62598935316292,19.17641754801353,31.51366307730549
101.8655809957292,-40.57655571184882,16.95971650244371,31.14393249766083
102.8113826656067,-39.11159924292108,15.29588634217481,32.84869891203017
103.7659659159747,-37.72438187620791,13.76848383078471,33.85386860916215
104.7294122820627,-36.9000159885096,12.87536941202009,36.60368321689994
105.7018040561381,-36.5457622247838,12.60723980392405,38.79399852552201
106.6832242945358,-36.09083037073567,12.0293119620611,37.94328337276177
107.6737568247523,-35.49450084826324,11.27393395029182,37.12847380889525
108.6734862526058,-35.08791682123374,10.74635064875735,35.74493969785594
109.6824979694626,-34.60414346639895,10.19456851427721,34.9540771232239
110.7008781595309,-34.40296912498712,9.833066408568859,33.18245548247964
111.728713807222,-33.79593420926312,9.160140772299957,33.88510759734493
112.7660927045804,-33.5868604219801,8.717761614942653,30.53892319272543
113.8131034587823,-32.74802842107277,7.659905644023821,29.44029930498451
114.8698354997035,-32.07616153499232,7.00889674457331,31.3158892166897
115.936379087559,-31.79722282277255,6.73353157991794,31.0140276996151
117.0128253206114,-31.13048603005598,5.985818233983259,30.50378776366034
118.0992661429531,-30.35797135553157,5.205456110557814,31.80039687359147
119.1957943523586,-29.73194470461744,4.494047453471732,32.19990890127657
120.3025036082117,-29.06278977485047,3.760982615179825,33.65078021115963
121.4194884395047,-28.2824545260937,3.042290329890116,34.93168069600085
122.546844252913,-27.57672172253505,2.366774663376409,36.95339861828369
123.6846673409437,-26.88956464045365,1.56383350813393,41.12110461920031
124.8330548901612,-26.50429551695633,1.268796503414541,45.0804099995466
125.9921049894873,-26.25530565884663,1.042790077251637,47.38939266092729
127.1619166385803,-25.39503659630867,0.1681936396102061,48.78047953509653
128.3425897562904,-24.79541196130352,-0.5387776372737257,54.48181466351988
129.5342251891947,-24.44998796535724,-1.075309124851467,59.33144047940394
130.7369247202105,-24.1920292546406,-1.492399136720766,65.24406814123728
131.9507910772894,-24.03145612603938,-2.03508940455032,71.92058820943529
133.1759279421916,-24.49934014624058,-2.112858222571334,79.90527739595137
134.4124399593418,-25.2070900188163,-1.878923604036653,86.50726911871945
135.6604327447672,-26.04177134123344,-1.335147137079704,92.16951561995022
136.9200128951192,-26.30410996714478,-1.491244869680472,95.26504619420403
138.1912879967776,-26.14178190655608,-2.234977149184865,102.8728754304882
139.4743666350405,-27.52333040668965,-1.509124270420561,114.6371590590726
140.769358403399,-29.18757066236461,-0.1562700591941563,124.6461889978544
142.0763739128976,-31.66927540751632,2.456355083534805,131.4429978910051
143.3955248015828,-33.21831018536594,4.263808558130931,122.5295858685105
144.7269237440378,-32.75310315571638,3.848256732993287,109.485124366579
146.0706844610073,-31.52718734882508,2.178678076628255,110.4986764493743
147.4269217291101,-31.67032372949738,1.871560385576565,122.7906647806128
148.7957513906435,-32.74433366998831,2.821712514773267,130.1237511524209
150.177290363477,-33.52959465745847,3.68711618702342,132.996032187148
151.5716566510398,-33.88347901358492,3.817008985415256,136.3676396126255
152.9789693523992,-34.68432657713572,4.673504788184466,139.4264738082449
154.3993486724336,-36.22469641004058,6.395750367081989,142.850628998519
155.8329159321,-37.56123449995033,7.894046518163702,139.8502471620245
157.2797935787962,-37.47373015009013,7.627786786856747,143.1955947888837
158.74010519682,-37.78989239089148,8.062517961174969,135.3600055919994
160.2139755179244,-38.3004528247857,8.717341790790735,131.513684694943
161.7015304319724,-38.66792487028192,9.011742720154736,138.8028252112456
163.2028969976891,-38.71063278554973,8.986951131602599,147.7667037575373
164.7182034535146,-39.90168810621816,10.1493873485616,163.4779221663171
166.2475792285576,-41.31776250396844,11.79842772272502,167.2630521174185
167.79115495365,-43.98405721713365,14.88523456283636,-172.4956353471356
169.3490624725054,-48.28240690227656,19.61044533620419,-155.2234122365536
170.9214348529799,-50.3925495452205,22.47674077014612,-87.57731172649207
172.5084063984381,-45.53018136313537,18.54087105321351,-15.02513710745009
174.1101126592249,-39.56203835515051,13.43474460124923,0.6521881260335931
175.7266904442427,-36.05372270554475,10.65499788211544,16.89597730711532
177.3582778326381,-33.62364698278439,8.726888270944247,21.91912164123752
179.0050141855945,-32.03678261415457,7.321384146802269,28.12266182130915
180.6670401582365,-29.87918843460589,5.518233873121746,32.33939761027901
182.3444977116434,-28.99551296727715,4.312233033130452,38.93667790028807
184.037530124975,-27.49403533243305,2.424284148283687,40.75553684462025
185.7462820077097,-27.01332648415283,0.1363949606352858,43.45979307737939
187.470899311996,-27.42822988372774,-2.130830018023612,46.66216984527102
189.2115293451192,-28.0526203755152,-5.221677872929126,44.80395813710477
190.9683207820833,-29.1533562992861,-8.734795425797477,47.37498739635821
192.7414236783104,-29.80660045144865,-15.6981371037342,26.00832414230722
194.5309894824571,-30.39524415224998,-15.30550518197436,-57.88896236345773
196.3371710493509,-30.47317079290309,-7.938259498043065,-68.18107107169955
198.1601226530458,-30.55165706587795,-3.575307429029652,-69.87550729119729
200,-30.10499494720456,-1.223871539138038,-62.91002180917715
