#Digilent WaveForms Network Analyzer - Bode
#Device Name: Discovery2NI
#Serial Number: SN:210321A36A5A
#Date Time: 2020-02-18 15:24:17.371
#Start: 50 Hz
#Stop: 200 Hz
#Steps: 151
#Wavegen: Wavegen1
#Amplification: 1 X
#Settle: 10 ms
#MinPeriods: 16 
#Channel: Channel 1
#Range: 5.4125 V
#Offset: -0.000188385 V
#Relative: no
#Channel: Channel 2
#Range: 5.49784 V
#Offset: 5.94039e-06 V
#Relative: yes

Frequency (Hz),Channel 1 Magnitude (dB),Channel 2 Magnitude (dB),Channel 2 Phase (*)
50.00000000000001,-25.85250673729316,17.21355008250023,-22.93859527046886
50.46424006059372,-32.16842704630451,20.92307649755011,-37.45451039757606
50.93279049786463,-34.93771874818475,23.17643734073784,-40.19024463101518
51.40569133280334,-40.47765506142633,28.00402584060464,-49.90678625535844
51.88298295798738,-41.10657493803664,27.48529244666651,-107.6216271432166
52.36470614103135,-42.22477605236443,28.13051547174574,-107.7836145148551
52.85090202806904,-38.21353835799231,23.03423984004261,-134.6008372726961
53.3416121472679,-37.40895594254674,21.69539062839511,-153.8536927261026
53.83687841237617,-36.89072078873293,20.79093633715228,-160.2661167821294
54.33674312630292,-35.28718209228222,18.49217273396591,-164.1735172407996
54.84124898473131,-34.25687050113337,16.78144816977383,-165.6322536266286
55.35043907976544,-34.2841914405146,16.90662319337998,-165.0466915964081
55.86435690361101,-33.57298932588252,15.68496184219623,-171.4654416783947
56.38304635229024,-32.64488614270296,14.30528242185176,-170.2096075035907
56.90655172939114,-31.98983790657144,13.39751525725903,-171.9299613103051
57.43491774985176,-31.76662149439702,12.7320633509721,-175.2268931100127
57.96818954377949,-31.0474337514637,12.11364970216103,-174.6047651954308
58.50641266030572,-30.51538232774115,11.36970084254143,-175.4704461685054
59.04963307147653,-30.16270701886279,10.83597940795943,-176.1784757874483
59.59789717617932,-29.7444992283981,10.36900161608438,-176.1792990477238
60.15125180410584,-29.35490363274956,9.942841507683106,-176.5602901354778
60.70974421975236,-29.02081144682077,9.6030686737049,-177.3534062976589
61.2734221264565,-28.6220831960147,9.269779647060883,-178.2027413244544
61.84233367047188,-28.43811861222774,8.972292347802965,-178.2887865856172
62.41652744508062,-27.83906320355215,8.728828476988941,-179.2347377203899
62.99605249474367,-27.48432497032816,8.507405389844154,179.7299107402303
63.58095831929016,-27.01168667734923,8.378965814603283,178.7858134324353
64.17129487814522,-26.53766054782697,8.24522582973303,177.7038681947274
64.76711259459735,-26.03267702397191,8.163815916313734,176.8577598578304
65.36846236010527,-25.59956910830404,8.125290492006741,175.4437365220469
65.97539553864472,-24.99089061275867,8.08893336680404,174.1584486646286
66.5879639710958,-24.51744448115535,8.031820757196579,172.8870783293918
67.20621997967088,-23.92076007208416,7.990045593920009,170.76380568275
67.8302163723836,-23.3027556583281,7.916113148697272,169.172517053906
68.46000644755961,-22.7127689515903,7.911369013175986,167.8661244967874
69.09564399838882,-22.10082898465419,7.831936574255771,166.0836647336375
69.73718331752028,-21.54523102001782,7.848091550861267,164.1356203017543
70.3846792016995,-21.0366705370025,7.883047311650836,162.2504862322465
71.0381869564488,-20.57729054568423,7.93591351866255,160.6363942054801
71.69776240079139,-20.32199622101297,8.052605720523045,158.6471463868952
72.3634618720189,-20.40223528227203,8.171132684334182,156.1139894930237
73.03534223050364,-20.72616564205781,8.172638104338935,152.6193797790499
73.71346086455507,-21.23630413502111,7.993559746635334,148.7759850251215
74.39787569532173,-21.67768354570024,7.721687815748036,145.0570815420793
75.08864518173853,-21.97532936114136,7.280388557664587,141.3874288081205
75.78582832551992,-22.12572132478594,6.615579614897474,138.2961936234043
76.4894846761996,-22.13801727366647,5.858041175430028,135.565908997742
77.1996743362168,-22.04871749801412,4.925060812031729,133.5455357769125
77.91645796605,-21.77805016036374,3.827614826420829,133.7573331253351
78.63989678939812,-21.50920097157678,2.662558250956005,135.1758912659333
79.37005259840998,-21.29548762696129,1.715532977502405,139.8057323275135
80.10698775896223,-21.02041576366674,1.130384134406613,145.6701257769873
80.85076521598623,-20.82362822980219,0.9752825826933887,150.9007148762135
81.60144849884456,-20.54268021157475,0.9543277087415296,154.623818412587
82.35910172675733,-20.26092923982414,0.91871806257407,157.3732818581515
83.12378961427879,-19.95674373452771,0.8889453751720202,160.1012554161485
83.89557747682503,-19.802110437024,0.7953446226278456,162.7792435432466
84.67453123625273,-19.66477166942433,0.7538919686349975,165.7850691647483
85.46071742648998,-19.67884341391703,0.686189553809077,168.9846897357504
86.25420319921908,-19.84872549385259,0.6160499138475056,172.8408507950878
87.05505632961243,-20.20354732310555,0.6022318333278707,178.2371796889041
87.8633452221214,-20.90528588108401,0.9113169755671375,-176.11835907581
88.67913891631906,-21.71329022045595,1.502267403332455,-171.5984106522911
89.50250709279725,-22.52908228284036,2.221179142066305,-167.6934437447143
90.33352007911824,-23.31576639750404,2.94009235411032,-166.375648381214
91.17224885582169,-23.99123749944341,3.524640754169929,-165.9211787904934
92.01876506248752,-24.76127618324679,3.974428297185251,-164.8778544559741
92.87314100385487,-25.53871626485541,4.57208248834077,-164.5775505179758
93.73544965599802,-26.12429987075716,4.921725193926834,-164.4449775836636
94.60576467255959,-26.82550156737386,5.245945247697845,-165.5224194044223
95.48416039104167,-27.39334784892068,5.51107236601352,-165.4856471239484
96.37071183915521,-28.08626113606359,5.751029715107389,-165.7421833219044
97.26549474122857,-28.60196600841425,5.942171160833118,-165.3433590504019
98.16858552467546,-29.28486057711062,6.252936824065248,-165.4476710017346
99.08006132652297,-29.83591699471294,6.483809578231171,-165.143803663798
100,-30.42739989711069,6.745467980923314,-165.098438308917
100.9284801211874,-30.97597227429123,6.95563884013357,-165.8042922646099
101.8655809957292,-31.28785622263246,6.921284785935143,-166.1961870247769
102.8113826656067,-31.8350295168916,7.184934397209361,-166.140696213565
103.7659659159747,-32.30521843660927,7.359628959598817,-165.3250252965227
104.7294122820627,-32.85013243654957,7.736304173815693,-165.1221525919014
105.7018040561381,-33.24111003698632,7.733899777609889,-165.6093882900741
106.6832242945358,-33.69568860627093,8.068220944251536,-166.6213057284525
107.6737568247523,-34.15450463433982,8.249756039372492,-166.8098090860232
108.6734862526058,-34.58970167371118,8.444409162035608,-167.0227629385844
109.6824979694626,-34.97644217689869,8.60391210300533,-168.813416681397
110.7008781595309,-35.07140455299614,8.355373957614828,-168.4113222675603
111.728713807222,-35.55647411111943,8.69467960910978,-169.9042214454822
112.7660927045804,-35.84147646964578,8.71580143361874,-171.7333711711738
113.8131034587823,-35.63439354634327,8.156577110704928,-171.1678105920626
114.8698354997035,-36.27997939716948,8.580187059159391,-170.6489024088685
115.936379087559,-36.36247984928922,8.458114540672593,-176.0850922405293
117.0128253206114,-36.09280504049287,7.803241768839286,-174.2979678904279
118.0992661429531,-36.51741263600135,8.115680457241274,-177.9293496186374
119.1957943523586,-36.73331301449123,8.128720776427873,178.2042524782245
120.3025036082117,-36.23092895804428,7.25699854413673,174.2241955217405
121.4194884395047,-35.70723787418345,6.336798548929892,170.220353994428
122.546844252913,-34.69596702028337,4.754602737300486,166.8194869121739
123.6846673409437,-33.87656126792785,3.324266224275558,169.5465285420341
124.8330548901612,-32.53493191447404,1.004068830677266,170.9066388934371
125.9921049894873,-31.23261728227872,-1.382421592676838,176.6244194921396
127.1619166385803,-30.32055206071167,-3.445572406078727,-171.2218034422588
128.3425897562904,-29.43630709538467,-5.030766361863059,-152.116001729259
129.5342251891947,-28.61749946316849,-6.09225255140525,-132.8610092660859
130.7369247202105,-27.79149956642923,-5.746321137085596,-108.5035149591096
131.9507910772894,-27.61538411210335,-4.202601595030796,-93.36165378858854
133.1759279421916,-27.23302833077464,-2.922858542109235,-80.07666336127409
134.4124399593418,-27.23810886737726,-1.422386112074108,-72.41115897544853
135.6604327447672,-27.77970551669349,0.1775434282509727,-68.15343201845317
136.9200128951192,-28.19800372049924,1.1086434662399,-65.46017072071365
138.1912879967776,-27.39382610286371,1.515265838018489,-58.37538156609658
139.4743666350405,-28.43511693773405,3.567620254805905,-49.97691758859253
140.769358403399,-30.55835554062904,4.83083557838513,-56.99378683437889
142.0763739128976,-30.99594984493772,5.142293281291415,-57.73006338625235
143.3955248015828,-31.87003814645239,5.663122019737119,-61.4931877591315
144.7269237440378,-31.48182177241743,5.188084616563115,-62.22189245004621
146.0706844610073,-30.3547424708767,4.652513584313459,-55.56179373866691
147.4269217291101,-29.84667506350521,4.956608490142277,-47.5483569383999
148.7957513906435,-30.3048347295662,5.756335187784545,-41.6710369026425
150.177290363477,-31.31299418935428,6.696131139138377,-39.01412276677809
151.5716566510398,-31.92313251881103,7.344422009517197,-35.73864203340128
152.9789693523992,-33.12172034860217,8.276455318892811,-34.93520353510748
154.3993486724336,-34.58375614240386,9.359658672168365,-34.64880673749319
155.8329159321,-35.32066114369974,9.856859462614,-35.47029527858491
157.2797935787962,-36.66485608171168,10.7469730669343,-38.72587267693162
158.74010519682,-37.60200054493065,11.35657683143049,-40.82824443527411
160.2139755179244,-37.93452376915374,11.41915144625658,-45.98743061441789
161.7015304319724,-38.23870242061494,11.59496697317904,-46.78962101761383
163.2028969976891,-38.40525123536678,11.71275084868214,-47.75638305628866
164.7182034535146,-39.40702236511337,12.21253534713643,-56.5319502274837
166.2475792285576,-38.78363796783666,11.79183385342377,-52.34494372155991
167.79115495365,-39.40788777617672,11.87679018287606,-58.95083553332106
169.3490624725054,-40.53561973919415,12.49234232646446,-66.53135261985838
170.9214348529799,-41.49877439594304,12.95943668522497,-76.07224392427213
172.5084063984381,-41.62502385110244,12.44160708985393,-88.59553977064189
174.1101126592249,-40.79686896858193,10.39121107467522,-108.934389278963
175.7266904442427,-37.22959594854701,5.845430690739462,-108.0689600115758
177.3582778326381,-34.8398694955774,2.646744911845243,-103.6834142239404
179.0050141855945,-32.10532593829966,0.485124519951377,-84.02499359618051
180.6670401582365,-29.66785309097848,-0.8698925555123556,-65.48010738081297
182.3444977116434,-27.40915684337313,-0.9358709676186512,-48.9023705925923
184.037530124975,-25.41656256046195,-0.408092550822429,-37.86632449652491
185.7462820077097,-23.23303362203158,0.2104064015811814,-27.82735393158695
187.470899311996,-21.77760738420695,0.9729676483010146,-20.37823072669691
189.2115293451192,-21.70325290783805,1.950021882862025,-14.03477574865177
190.9683207820833,-22.19337485270608,2.555574177268177,-9.965373526252037
192.7414236783104,-22.67891441368004,3.015590435608167,-6.147267728500744
194.5309894824571,-23.34237846224823,3.423881338319795,-2.202760825933595
196.3371710493509,-24.48058944465078,3.950997507003185,0.4956274468310937
198.1601226530458,-25.93048732395395,4.767470945716795,2.247442900891414
200,-26.71361914261189,5.449331700378503,1.275249021633911
