#Digilent WaveForms Network Analyzer - Bode
#Device Name: Discovery2NI
#Serial Number: SN:210321A36A5A
#Date Time: 2020-02-18 15:19:49.831
#Start: 50 Hz
#Stop: 200 Hz
#Steps: 151
#Wavegen: Wavegen1
#Amplification: 1 X
#Settle: 10 ms
#MinPeriods: 16 
#Channel: Channel 1
#Range: 5.4125 V
#Offset: -0.000188385 V
#Relative: no
#Channel: Channel 2
#Range: 5.49784 V
#Offset: 5.94039e-06 V
#Relative: yes

Frequency (Hz),Channel 1 Magnitude (dB),Channel 2 Magnitude (dB),Channel 2 Phase (*)
50.00000000000001,-26.39748022323171,17.23609614880623,-28.002450065327
50.46424006059372,-33.14971034725169,21.23317192130209,-49.6408888495809
50.93279049786463,-34.85634951914038,22.48785510492504,-54.13853484110467
51.40569133280334,-37.58567116774627,24.87550761343629,-56.78661291440868
51.88298295798738,-43.76853476402778,30.24818587711872,-102.8641951807754
52.36470614103135,-39.75019687400334,25.41741342230193,-109.0746366710717
52.85090202806904,-38.45224778965794,23.37792343450128,-143.8007588601458
53.3416121472679,-39.11418816297984,23.69213822595007,-152.6565205254192
53.83687841237617,-37.9482669160451,22.10167649000628,-152.1143058764035
54.33674312630292,-36.77666666566946,20.41611763647913,-162.1907676358707
54.84124898473131,-34.96617464395633,17.99629905648584,-163.5819433061416
55.35043907976544,-34.05802728107781,16.34836114363118,-166.2017258283412
55.86435690361101,-33.73820211800017,16.11941974862503,-169.3402320381384
56.38304635229024,-32.63946940785826,14.42270948496019,-172.2525881496855
56.90655172939114,-32.06773680769842,13.59493871041051,-174.4116663979634
57.43491774985176,-31.71858695928274,13.04663434093361,-174.0897863614176
57.96818954377949,-31.36451325282231,12.16939450062103,-173.7886385179744
58.50641266030572,-30.71073745386129,11.58169469069399,-176.0525535690765
59.04963307147653,-30.24463127494991,10.98412212879528,-176.280706034092
59.59789717617932,-29.91710845590885,10.55581723872949,-176.5082388860453
60.15125180410584,-29.44046417214648,10.08745946582779,-177.3025589902601
60.70974421975236,-29.29893082224763,9.696329247939374,-177.3702193407645
61.2734221264565,-28.64265913677878,9.434026124853167,-177.7882234717908
61.84233367047188,-28.23376009794358,9.079333160615581,-178.3296178747739
62.41652744508062,-27.89548967870161,8.911874704134163,-178.8835296280428
62.99605249474367,-27.62510593598822,8.665116638680368,-179.6506788301079
63.58095831929016,-27.13260550170971,8.505123323315269,178.3218756272763
64.17129487814522,-26.62079906048787,8.377749838656559,177.7777527097959
64.76711259459735,-26.09787889482903,8.287567343121733,176.6448155276377
65.36846236010527,-25.48283967350454,8.289408923075808,175.0828653491529
65.97539553864472,-25.03166732209455,8.23105139197348,173.4100210466488
66.5879639710958,-24.36021477175221,8.188093220007392,171.7524341641961
67.20621997967088,-23.79121035480003,8.11687032851062,170.2878592147426
67.8302163723836,-23.1885323915411,8.107951120367199,168.7119006367705
68.46000644755961,-22.55840520126796,8.066726761582313,167.0818186837883
69.09564399838882,-21.96729500717853,8.088039412830527,164.8104859783021
69.73718331752028,-21.4643824817827,8.12783260503952,163.0921086351803
70.3846792016995,-20.97616125909152,8.124534847382115,160.9455733790597
71.0381869564488,-20.59685097131855,8.133773477369244,159.4770650680149
71.69776240079139,-20.41347414280456,8.221399279763911,157.5896723014895
72.3634618720189,-20.48058538921527,8.291157663345906,155.2199412432007
73.03534223050364,-20.88741439055141,8.349993742152353,152.3364044359636
73.71346086455507,-21.49565212351017,8.290034930851849,148.4799016875083
74.39787569532173,-22.08169533102643,8.04390291642188,144.3946554345392
75.08864518173853,-22.58237011755305,7.593413661622543,139.6869773920268
75.78582832551992,-22.80820424330399,6.875481627940228,135.4688081707637
76.4894846761996,-22.76164620497001,5.902092270836221,132.3811228852466
77.1996743362168,-22.52582324701843,4.773661596817142,131.0864529119748
77.91645796605,-22.06773190172713,3.530506092780003,132.1752879469862
78.63989678939812,-21.69724399457582,2.430446374560177,134.5206779604694
79.37005259840998,-21.30425186887268,1.557460678128598,139.9100065708808
80.10698775896223,-21.0784538271487,1.204493176602529,145.8529018029737
80.85076521598623,-20.84194803363754,1.03940342058447,150.3595511419094
81.60144849884456,-20.62286803316269,0.9862763004979891,153.7304770610592
82.35910172675733,-20.26236027701343,0.8919626109304386,156.9840147090579
83.12378961427879,-20.02796450244467,0.8136467031238872,159.8630256627898
83.89557747682503,-19.8889211067423,0.7536364358754137,163.1706156559511
84.67453123625273,-19.96267253060018,0.7587563085430206,166.7843558744583
85.46071742648998,-20.13133307985058,0.8383935144419609,170.2996452671893
86.25420319921908,-20.46361888195127,0.973999986630027,173.9292503242357
87.05505632961243,-20.75608232688831,1.124647618091297,177.3235045405173
87.8633452221214,-21.10711672255386,1.300284914600514,-179.3842736722484
88.67913891631906,-21.5622489106364,1.544256872616596,-176.1784513011215
89.50250709279725,-22.04952153594347,1.797873599038697,-172.5122839871544
90.33352007911824,-22.64339880083469,2.108606255321178,-169.4012175376551
91.17224885582169,-23.33372223050748,2.514649359421841,-166.1116083249911
92.01876506248752,-24.0794679437792,3.006266509227254,-162.1061405264208
92.87314100385487,-25.05545882410055,3.839487391142171,-158.8701078483969
93.73544965599802,-25.95543988951835,4.661252705754858,-158.273195890477
94.60576467255959,-26.95175540447786,5.40046685449046,-159.234619396315
95.48416039104167,-27.80720060457111,6.017194775982521,-160.6665946523113
96.37071183915521,-28.5451714730908,6.423693781167979,-162.5216820225578
97.26549474122857,-29.13749475267068,6.636477349448253,-164.2773349827804
98.16858552467546,-29.76245145811984,6.934725182296997,-165.8012499856164
99.08006132652297,-30.24159506777251,6.982502912867061,-167.0170300922047
100,-30.60491845817644,7.048931625889399,-167.2095591821088
100.9284801211874,-31.01157504821978,7.060348710421937,-167.5896329621087
101.8655809957292,-31.31091639649805,7.042763230842462,-167.7579643121466
102.8113826656067,-31.77635774989275,7.204882972315253,-168.3125594362631
103.7659659159747,-32.19493723517814,7.381833012476808,-166.6569020185709
104.7294122820627,-32.67129164555197,7.464865114533531,-166.5030140852251
105.7018040561381,-33.13601769877748,7.780774990996147,-165.9866926947
106.6832242945358,-33.60075224227808,7.854665037315856,-166.4319165027334
107.6737568247523,-33.93528057972657,7.980146897189467,-167.7215671072449
108.6734862526058,-34.42225433024672,8.2570798936546,-167.7072338240509
109.6824979694626,-34.73483993860808,8.270781345806819,-166.4268872488225
110.7008781595309,-35.26072700618187,8.63001541140142,-168.8831446164887
111.728713807222,-35.44304658468648,8.560934792026719,-170.2364874000293
112.7660927045804,-35.86081846232117,8.771090200694291,-172.820469260916
113.8131034587823,-35.62972063293666,8.262432611725126,-174.5203822888767
114.8698354997035,-35.93599769048915,8.269487631324989,-171.6940759381237
115.936379087559,-36.10381556259605,8.093571679720132,-175.3869768737746
117.0128253206114,-36.39539688014968,8.254191521340996,-173.3554425098633
118.0992661429531,-36.54105564662399,8.10412733819048,-176.2220654550761
119.1957943523586,-36.49484348232566,7.861689317863406,176.2357345095523
120.3025036082117,-36.04591643318213,7.074283122858494,173.4543501767742
121.4194884395047,-35.36964747713357,5.969643550547979,168.7955918852167
122.546844252913,-34.76940438280604,4.800970256193289,168.8605118559843
123.6846673409437,-33.53854923266297,2.8734703687067,166.1285310838415
124.8330548901612,-32.55925818371993,1.089918541973744,170.6703339378175
125.9921049894873,-31.24264502816501,-1.530509730847522,178.7051621626621
127.1619166385803,-30.2083327212273,-3.699109318155364,-166.6356915166923
128.3425897562904,-29.43725839181038,-4.872892205547154,-147.1665249749071
129.5342251891947,-28.60015486329092,-2.716642089904056,-106.8645662921523
130.7369247202105,-27.43312619936314,-5.849237482665607,-100.498370602012
131.9507910772894,-27.57172475080694,-4.005793288651919,-92.44249686310138
133.1759279421916,-27.34416280180667,-2.517117817145079,-79.08157565051438
134.4124399593418,-27.46594057153857,-1.132546529446829,-73.06326710202347
135.6604327447672,-27.83841132095905,0.3423487012040178,-68.33032389965599
136.9200128951192,-28.28364686771943,1.180818565621468,-66.71104296479194
138.1912879967776,-27.45890976831881,1.506135938379002,-58.9613630565719
139.4743666350405,-28.71031691660321,3.550679209267288,-52.2166074568845
140.769358403399,-30.46131816079209,4.754867517883207,-57.07853247036843
142.0763739128976,-30.88607915268527,4.884769085860729,-59.06414256579086
143.3955248015828,-31.68891893295218,5.469729913807754,-61.50871084666994
144.7269237440378,-31.67387070254039,5.361694972132764,-62.44591729624938
146.0706844610073,-30.14054701012636,4.30404688751227,-56.9416323531877
147.4269217291101,-29.70182163965758,4.838121739371168,-47.159295176834
148.7957513906435,-30.38498603908042,5.832438492936145,-42.54765903055895
150.177290363477,-30.90862905531703,6.395235046440519,-39.25324952685186
151.5716566510398,-31.59869929057975,7.152607516206249,-35.60777921926659
152.9789693523992,-33.0176275547112,8.218625166232332,-33.94842442862526
154.3993486724336,-34.42236572756962,9.237698739661331,-34.49887694284592
155.8329159321,-35.48353088212663,9.967993250490876,-35.60689609059735
157.2797935787962,-36.55020436477147,10.67986232442034,-36.94327768963106
158.74010519682,-37.6348347174437,11.30339056936002,-42.34617381146575
160.2139755179244,-38.42866508657811,11.81187516377463,-46.87425301247423
161.7015304319724,-38.6230408865054,11.73144327829104,-51.92320546329454
163.2028969976891,-38.23891692056583,11.48292710125247,-50.67287154631371
164.7182034535146,-38.96081233864611,11.92646881303188,-54.31102581147182
166.2475792285576,-39.18045357146502,12.05457587978585,-53.20527471968525
167.79115495365,-39.41896566837829,12.05951968937876,-56.70434703232891
169.3490624725054,-40.32567122406226,12.42813752403732,-63.21176292747646
170.9214348529799,-41.5530991509967,13.34736749339397,-68.22562292427014
172.5084063984381,-43.2081728437005,14.01511086697607,-90.57077459796604
174.1101126592249,-40.10597365308605,9.633803194712222,-108.7723987195736
175.7266904442427,-37.25455636602168,5.747833800310866,-112.9225770199455
177.3582778326381,-34.84020315521728,2.529357900960277,-105.6688752170888
179.0050141855945,-32.03777704018429,-0.329514562679687,-86.05771501794726
180.6670401582365,-29.62452604949549,-1.140200811786338,-65.30456679931667
182.3444977116434,-27.52160371470785,-0.8267600427655976,-50.386184715345
184.037530124975,-25.43091908894008,-0.481018783011847,-38.31116892061324
185.7462820077097,-23.34475841000613,0.370652127392399,-27.84641192663446
187.470899311996,-21.87669955950689,1.204164003970666,-20.23554162344112
189.2115293451192,-21.52877892319829,1.941073675293705,-14.32926408680837
190.9683207820833,-21.99647572824269,2.51169674622847,-10.20792322739329
192.7414236783104,-22.662649217418,2.975425226514395,-6.458782613528143
194.5309894824571,-23.32685983222438,3.448619537738683,-2.416552729827714
196.3371710493509,-24.33847353762361,4.006871688763474,0.3135003674914429
198.1601226530458,-26.18730436867256,4.743257523295556,2.482251573252711
200,-26.69117814543385,5.467526551478983,0.7370313033300135
