#Digilent WaveForms Network Analyzer - Bode
#Device Name: Discovery2NI
#Serial Number: SN:210321A36A5A
#Date Time: 2020-02-18 14:54:03.305
#Start: 50 Hz
#Stop: 200 Hz
#Steps: 151
#Wavegen: Wavegen1
#Amplification: 1 X
#Settle: 10 ms
#MinPeriods: 16 
#Channel: Channel 1
#Range: 5.4125 V
#Offset: -0.000188385 V
#Relative: no
#Channel: Channel 2
#Range: 5.49784 V
#Offset: 5.94039e-06 V
#Relative: yes

Frequency (Hz),Channel 1 Magnitude (dB),Channel 2 Magnitude (dB),Channel 2 Phase (*)
50.00000000000001,-27.64995173051231,18.36795934863805,-23.62683937434838
50.46424006059372,-34.78621409790036,22.46660882044246,-46.49793201726858
50.93279049786463,-35.86381501690419,22.8875430845346,-56.37642624694868
51.40569133280334,-38.07273591778119,24.93964905596189,-52.3167023597224
51.88298295798738,-44.70109010647356,30.92211595890831,-88.75602187782778
52.36470614103135,-39.86600873395531,25.49192438074537,-101.4744317450685
52.85090202806904,-41.08233094590464,26.31234848212507,-137.5814013849911
53.3416121472679,-41.38377688270579,26.18653601024994,-150.7493717353705
53.83687841237617,-39.5681681695951,23.84038984370489,-159.9150985261436
54.33674312630292,-38.2332361388756,22.16145721915581,-166.6939564409139
54.84124898473131,-36.14897456958477,19.63821075769554,-169.9434571978321
55.35043907976544,-34.83457984777821,17.84387924118577,-166.2115700601588
55.86435690361101,-34.8228753325355,17.75723647644065,-171.0309254106581
56.38304635229024,-33.24321511616027,15.7295790308131,-169.4411647190943
56.90655172939114,-33.07040596011088,15.57680213325358,-174.5759467305645
57.43491774985176,-32.37170307792893,14.60179156171116,-173.4840357313108
57.96818954377949,-31.76320269535024,13.96050760006267,-173.6786970420552
58.50641266030572,-31.23345061283966,13.255795956795,-175.5824487462817
59.04963307147653,-30.84555701998198,12.82251819618666,-175.6177685768987
59.59789717617932,-30.34150366939188,12.42774569781072,-176.9642616355236
60.15125180410584,-29.90045741855204,12.04032368903958,-177.8916532321113
60.70974421975236,-29.33186746630483,11.6362341212864,-178.2654215976682
61.2734221264565,-29.0913238842959,11.4348731354808,-179.4327530016885
61.84233367047188,-28.41348000150647,11.10901771189464,178.5855962145243
62.41652744508062,-27.90245130970497,10.88968624977835,178.6260236765258
62.99605249474367,-27.32068521100569,10.81171044331952,176.4130838228169
63.58095831929016,-26.73219349433263,10.78970776442988,175.1739643339561
64.17129487814522,-26.05212157425051,10.66323672788438,174.3255340482776
64.76711259459735,-25.47846065723947,10.60072662640974,173.0283613798549
65.36846236010527,-24.77724814324325,10.58420577307262,170.9979451377176
65.97539553864472,-24.14601785295826,10.60505840069492,168.9427681427399
66.5879639710958,-23.50592992814224,10.56544051834943,166.8443266177193
67.20621997967088,-22.93879804279129,10.46637891579914,164.7959296110585
67.8302163723836,-22.42063634623022,10.51239785093492,162.6448809332138
68.46000644755961,-22.04934941595069,10.49445752163061,160.3450201632858
69.09564399838882,-21.817594769387,10.46706233021419,157.8401225339605
69.73718331752028,-21.71747066955529,10.36380261982983,156.0369889873257
70.3846792016995,-21.715147833621,10.28276769923507,154.1854571754309
71.0381869564488,-21.91644139561866,10.27849016979131,152.4804743402093
71.69776240079139,-22.36263159958506,10.29945774474824,149.9578157395655
72.3634618720189,-22.9060541436027,10.21900626910351,146.8757857686491
73.03534223050364,-23.44717607750945,9.980415522585131,143.3328002253807
73.71346086455507,-23.89212714220623,9.651620653540393,139.5680733110825
74.39787569532173,-23.99366072588941,9.128870263944274,136.936041116915
75.08864518173853,-24.15186452963825,8.718949929805676,133.4412357932295
75.78582832551992,-24.26908078229168,8.234003938772434,130.1072497045952
76.4894846761996,-24.59063835045352,7.818525402818151,125.3243364127709
77.1996743362168,-24.74281187243118,6.772626339043169,118.7336181331329
77.91645796605,-24.57761695072944,5.263395326989045,113.7078196002704
78.63989678939812,-24.17641145268038,3.002170982133761,111.1191980917154
79.37005259840998,-23.89553046550459,0.2731204467504041,115.6792066064975
80.10698775896223,-23.53581688882279,-2.207569190162311,130.982441831826
80.85076521598623,-22.99416028956335,-2.078708479894228,149.4460856194341
81.60144849884456,-22.43495287307361,-1.320274446647231,157.9761645235691
82.35910172675733,-21.87936818499218,-0.6423381175697772,161.8293838193533
83.12378961427879,-21.39362768304658,-0.3885032043733601,164.1812951420472
83.89557747682503,-20.96257300520889,-0.06589057840380765,166.4872724698473
84.67453123625273,-20.66297188379846,0.0480566996605493,169.3415037623755
85.46071742648998,-20.45350022488217,0.1284042443207419,172.1210892771748
86.25420319921908,-20.39135310274973,0.2703337003583298,175.2744539904549
87.05505632961243,-20.61168491496874,0.4901379450778743,179.0455549649666
87.8633452221214,-20.85598412803506,0.7195840236602609,-177.0340014777327
88.67913891631906,-21.24743592256332,1.045328097480942,-173.1986751156996
89.50250709279725,-21.81300759508007,1.446988284285488,-169.5629612176213
90.33352007911824,-22.38094575266784,1.965967854234243,-166.5428741700057
91.17224885582169,-23.0167519346859,2.493944903032827,-164.2750452723329
92.01876506248752,-23.65143143637415,3.098031991896702,-161.5410432458251
92.87314100385487,-24.35181607984685,3.794583133908444,-159.9426779074965
93.73544965599802,-25.12322787496251,4.481739174151801,-160.3103191862685
94.60576467255959,-25.70417060464855,4.962612941732406,-161.4515258448883
95.48416039104167,-26.33647161798688,5.392705748402221,-162.1446235216703
96.37071183915521,-26.913942846504,5.716584462983104,-163.4581268904483
97.26549474122857,-27.36423684146702,5.861894152383767,-165.2275977393626
98.16858552467546,-27.74978320543323,5.94516685468657,-165.7442427214236
99.08006132652297,-28.15456800923831,5.962337024423756,-166.8050134184195
100,-28.50404073396076,5.959761884992835,-166.5263666163179
100.9284801211874,-28.8738224988268,5.956522924559817,-167.0383791634653
101.8655809957292,-29.10331794700604,5.798151914915596,-166.4568242300954
102.8113826656067,-29.49709769651637,5.800900337910803,-166.1192247191556
103.7659659159747,-29.92049522173878,5.909493120144807,-165.7628982317285
104.7294122820627,-30.33059714678635,5.982069370395387,-163.9211891781802
105.7018040561381,-30.67728771450231,6.137571130463404,-164.621323195084
106.6832242945358,-31.20974116245808,6.365321835662746,-164.239564211668
107.6737568247523,-31.59197006792562,6.418518130758399,-164.4017248944529
108.6734862526058,-32.02121999709701,6.610455981823228,-164.7879392803688
109.6824979694626,-32.21874331508977,6.581034361329507,-164.5129757844793
110.7008781595309,-32.41183588554807,6.489467646093983,-164.9572620540056
111.728713807222,-32.78343895201019,6.575667860288716,-164.2548148880579
112.7660927045804,-32.78869080220922,6.218559219332349,-164.4778266103407
113.8131034587823,-33.01863896790031,6.132577271391956,-164.1812269612701
114.8698354997035,-33.6797063957673,6.567536740375001,-165.2714601030343
115.936379087559,-33.59390545908531,6.35618068607978,-166.3397268406146
117.0128253206114,-33.53104807390815,5.840651203738685,-167.7840031548911
118.0992661429531,-33.78763458622926,5.938269219897563,-167.5009460411584
119.1957943523586,-33.69611074328564,5.461070592470335,-167.9608806331308
120.3025036082117,-33.64549385873367,5.156969732061881,-168.3390393815467
121.4194884395047,-33.47770003073518,4.689996561377974,-169.106413983315
122.546844252913,-33.06564786573484,3.784196709376592,-172.1799345359043
123.6846673409437,-32.5879589408186,2.664763359910928,-169.1210342377135
124.8330548901612,-31.97811713479483,1.549739001970939,-167.6406071458908
125.9921049894873,-31.2590951052708,0.1563846871514811,-162.1816654394594
127.1619166385803,-30.89281849641861,-0.5378452809047114,-155.6422126457609
128.3425897562904,-30.22900507719555,-1.686249720521963,-149.875034428996
129.5342251891947,-29.08264475686043,-3.743413150979009,-137.808924307113
130.7369247202105,-28.11571255866517,-4.458487037215726,-119.4096405326283
131.9507910772894,-27.53311375440646,-3.417642585077674,-96.51076256357838
133.1759279421916,-27.18300367657869,-2.757320527352644,-87.87644300164736
134.4124399593418,-27.08034448583062,-1.158467258362515,-76.78099951199462
135.6604327447672,-27.21474852816578,0.08960855590488286,-69.37996174164863
136.9200128951192,-27.44729816877651,1.078939754035397,-64.44725773786912
138.1912879967776,-27.51780719070118,2.112702043544232,-59.10193128872679
139.4743666350405,-28.67025511322786,3.735685210869594,-53.86075437921298
140.769358403399,-30.38099187663418,4.988341806045822,-57.80449122488237
142.0763739128976,-30.63971415933545,5.317770319645417,-56.81642258293692
143.3955248015828,-31.54042026786303,5.879356810639308,-59.29397357891602
144.7269237440378,-31.50713287530019,5.61677082896221,-61.74145251985163
146.0706844610073,-30.27272935121296,4.907929835740722,-55.53191727699755
147.4269217291101,-29.75554355418889,5.189467454727248,-47.2688142718913
148.7957513906435,-30.31384077519142,6.11831125872653,-40.8653236926377
150.177290363477,-30.91782151052667,6.702422942594177,-38.92043305496085
151.5716566510398,-31.73122948651186,7.5488130800322,-34.51444975021988
152.9789693523992,-32.85420992598979,8.504329316103842,-30.70917832843744
154.3993486724336,-34.4230839512813,9.633714684873546,-29.40763392015644
155.8329159321,-34.99056310259933,9.998902031747106,-30.55661809477588
157.2797935787962,-36.3786130450998,11.03327045204759,-31.32230817354912
158.74010519682,-36.96258173389475,11.32854872153523,-32.6089307554767
160.2139755179244,-37.47712775133134,11.66081995664123,-34.59226819592182
161.7015304319724,-37.91239590971684,11.9199209020845,-36.21894243403262
163.2028969976891,-38.0871545458586,12.01815165923697,-35.36817960023924
164.7182034535146,-38.66702995592478,12.46906083420814,-34.98674179032752
166.2475792285576,-38.26795243826832,12.055357893067,-34.27676270086896
167.79115495365,-39.04308662934491,12.42743572240621,-34.53062130684941
169.3490624725054,-39.88065643683842,13.04024729924233,-33.94374739769449
170.9214348529799,-40.72384067648373,13.71491968435524,-29.61297049828045
172.5084063984381,-42.20346171976093,14.74770014375957,-28.49230070842882
174.1101126592249,-45.73035216542779,17.31062061023497,-34.34396398867477
175.7266904442427,-46.35294208101718,17.75057858087702,-41.288935901805
177.3582778326381,-46.9770167316387,17.83579229686978,-64.33250524807374
179.0050141855945,-45.17872763547987,15.17166236728082,-97.67790062124467
180.6670401582365,-42.11025624220603,11.94429786572069,-94.30704808093367
182.3444977116434,-39.46683493780495,8.990224907841689,-93.34003095337962
184.037530124975,-36.88459593063335,6.4019384136,-86.86289677458804
185.7462820077097,-34.19126871157385,4.596465672747886,-70.13885449243057
187.470899311996,-32.12725191881167,3.703705060897726,-58.97151133365939
189.2115293451192,-29.67442002234966,3.242954161969122,-43.98416092303728
190.9683207820833,-28.00961915559637,3.381410165808088,-33.46267074539919
192.7414236783104,-26.24253596778733,3.618438869757068,-23.53661424852373
194.5309894824571,-25.04880983843156,4.115842246798224,-14.1512033505843
196.3371710493509,-24.67698088844805,4.493726612140041,-5.755197420589781
198.1601226530458,-26.14812705394183,5.10219623642019,4.637241246588786
200,-29.66304421483581,6.767160620292997,13.409392778057
