#Digilent WaveForms Network Analyzer - Bode
#Device Name: Discovery2NI
#Serial Number: SN:210321A36A5A
#Date Time: 2020-02-18 14:19:21.439
#Start: 50 Hz
#Stop: 200 Hz
#Steps: 151
#Wavegen: Wavegen1
#Amplification: 1 X
#Settle: 10 ms
#MinPeriods: 16 
#Channel: Channel 1
#Range: 5.4125 V
#Offset: -0.000188385 V
#Relative: no
#Channel: Channel 2
#Range: 5.49784 V
#Offset: 5.94039e-06 V
#Relative: yes

Frequency (Hz),Channel 1 Magnitude (dB),Channel 2 Magnitude (dB),Channel 2 Phase (*)
50.00000000000001,-31.12932196576054,32.02637674978943,-38.45805120709532
50.46424006059372,-34.87725276273039,31.74493870130147,-122.5287756492549
50.93279049786463,-32.06995307789843,26.88118649764943,-152.0024204729464
51.40569133280334,-30.27627891386662,24.12537871175439,-152.6357676067181
51.88298295798738,-29.80164963940532,23.27635307746685,-156.0012125696057
52.36470614103135,-29.14507302016053,21.773675744788,-163.6265290458824
52.85090202806904,-28.24566065306215,20.31505153563735,-162.2305445048033
53.3416121472679,-27.74323523759044,19.36136724769568,-162.1298940304385
53.83687841237617,-27.38014669402561,18.7326831950055,-166.1358224795738
54.33674312630292,-26.85967195499637,17.85535886933176,-169.7134856188212
54.84124898473131,-26.17986860905308,16.36147235190322,-170.0920869258655
55.35043907976544,-25.83337642316582,15.20087892257049,-170.6256462405148
55.86435690361101,-25.36428979227205,14.36066817680631,-167.9960606186697
56.38304635229024,-25.05315561021951,13.65233113562185,-171.59109392431
56.90655172939114,-24.76656146127137,13.09946074997981,-169.7288298967559
57.43491774985176,-24.46904083903643,12.47408534168306,-169.5904030136394
57.96818954377949,-24.73879463171171,11.95499884712958,-169.3149195445462
58.50641266030572,-24.42411214044417,11.62435624275841,-168.4094568201113
59.04963307147653,-24.5467931597437,11.19578745719503,-169.4230769815528
59.59789717617932,-24.68041211377343,10.87849969371229,-169.6836986267684
60.15125180410584,-24.54488032596977,10.47566664679881,-170.2523320839089
60.70974421975236,-24.74244809502818,10.14922943700839,-171.6553942443591
61.2734221264565,-24.54778332072653,9.805974126616567,-171.7997031130018
61.84233367047188,-24.50916300014572,9.463185414339462,-172.8072943019908
62.41652744508062,-24.55506916733656,9.114457717147719,-173.5568346532072
62.99605249474367,-24.77737099202009,8.695064010377841,-174.3435517253733
63.58095831929016,-24.92687015341692,8.392564077943657,-176.2187806825822
64.17129487814522,-24.92126144913455,7.955714556613513,-176.5727728895359
64.76711259459735,-24.84621645083497,7.649873257811171,-176.2598246419626
65.36846236010527,-24.68163211763425,7.290552911025941,-177.3298673668561
65.97539553864472,-24.87294916796457,6.940354917440437,-177.9630449237186
66.5879639710958,-24.73281306918856,6.602667196520969,-178.7638918157223
67.20621997967088,-24.76976177201991,6.246659223184765,-179.1529415233985
67.8302163723836,-24.83223551448295,5.91407598334973,-179.7135888871048
68.46000644755961,-24.82154073243174,5.483126723651811,179.803637967813
69.09564399838882,-24.92759972120574,5.129793473828757,178.9603385269187
69.73718331752028,-25.03320056311777,4.777321798570011,179.0810651209479
70.3846792016995,-24.79787633835173,4.335587167578378,178.8504838096385
71.0381869564488,-24.74835122496511,4.031631651742373,179.3156464692683
71.69776240079139,-24.54229909771524,3.609897967118385,178.8457057986781
72.3634618720189,-24.26443627252937,3.254055174577235,179.508652942931
73.03534223050364,-23.97626789377835,2.941182788816548,179.7287930275682
73.71346086455507,-23.56481996060412,2.626513204080584,179.7194275780842
74.39787569532173,-23.08406433684839,2.370533022584521,-179.5986330219677
75.08864518173853,-22.72047497242205,2.032658791919742,-179.5831195423877
75.78582832551992,-22.27416726071689,1.769655893209651,-178.9598077778985
76.4894846761996,-21.73902697306474,1.446333013968612,-178.4600776738194
77.1996743362168,-21.20389047271443,1.195135504229335,-178.0885297735433
77.91645796605,-20.48472832274443,0.9173719805107237,-177.8574596291995
78.63989678939812,-19.77754239401508,0.6107908470945551,-177.443175069791
79.37005259840998,-18.84233297710924,0.3112876337700847,-176.7793291008641
80.10698775896223,-17.77307760454619,0.002851372050777679,-176.5190395769204
80.85076521598623,-16.64832779300807,-0.3257430164653624,-176.3378918958172
81.60144849884456,-15.7619389422086,-0.6144654244640506,-175.6808817220242
82.35910172675733,-14.79824869962268,-0.9020857029277095,-175.2795179140069
83.12378961427879,-13.82278276430153,-1.212912146430048,-175.4189945053764
83.89557747682503,-13.27898568926899,-1.544804893857119,-175.7949452541303
84.67453123625273,-13.56537682779197,-1.874713031469925,-176.1169669565105
85.46071742648998,-14.61629655201009,-2.279597883755801,-176.5652000197596
86.25420319921908,-15.75280598027411,-2.74817712625905,-176.5492149493216
87.05505632961243,-16.44522819908246,-3.161098020803074,-174.8442445246392
87.8633452221214,-17.9185338759908,-3.594449376542128,-175.25905719576
88.67913891631906,-19.13631535493666,-4.081102451795341,-175.0955239079629
89.50250709279725,-20.07831133342712,-4.573338397348045,-173.7307654980202
90.33352007911824,-20.87388578151284,-5.040405717129559,-172.0119934440405
91.17224885582169,-21.62814378272767,-5.391271050043684,-170.8962077560981
92.01876506248752,-22.34349134675388,-5.7933522887144,-169.1183300673961
92.87314100385487,-22.96278722627932,-6.196513662880914,-167.8980263168144
93.73544965599802,-23.60904254515344,-6.776836302264782,-166.9123931054725
94.60576467255959,-24.48296484243072,-7.345822975383136,-165.7124222404547
95.48416039104167,-25.18471418364431,-7.989262023156835,-165.1301239168122
96.37071183915521,-26.04339802664196,-8.957876049356619,-162.6757556948508
97.26549474122857,-26.69158517051848,-9.844090973651683,-162.4123231508622
98.16858552467546,-27.69761816400311,-11.79041661356087,-159.4728694296485
99.08006132652297,-28.63414654426109,-13.61271377909731,-155.0080619392628
100,-29.66187253185476,-17.86349642692154,-138.8080927517067
100.9284801211874,-30.88538987488446,-22.43375136154551,-84.41502552153604
101.8655809957292,-32.17287494918408,-14.65142417491872,-37.23168362496854
102.8113826656067,-33.37352141048095,-9.365452987444748,-30.80709856046937
103.7659659159747,-34.79416520626209,-4.612023480718628,-26.59606745872775
104.7294122820627,-36.31689344744993,-1.625100481972817,-25.43924616848311
105.7018040561381,-38.16877340812804,2.308238790126245,-26.36182228921759
106.6832242945358,-40.15190519743528,5.249641730666329,-29.71200825157348
107.6737568247523,-41.88033135791846,7.892406867769265,-35.7082328453966
108.6734862526058,-44.99561976669157,11.99193939238958,-46.41233480629481
109.6824979694626,-48.67952528049101,16.72856241295541,-74.52827035691249
110.7008781595309,-47.67676482331613,16.98611727830004,-116.2925253290902
111.728713807222,-44.97010728471285,14.80281305590329,-133.9693502329108
112.7660927045804,-42.32634594996298,12.77475976413776,-146.5300777888466
113.8131034587823,-40.93744999336919,11.93368125490731,-153.1695778235366
114.8698354997035,-38.26356979636775,10.4852085252187,-162.8574800434977
115.936379087559,-36.87238455376378,9.498429680548595,-163.5076023334456
117.0128253206114,-35.03185593668447,8.682621025690281,-167.1496235984055
118.0992661429531,-33.928572962288,8.211844985933109,-168.795892569658
119.1957943523586,-32.58601932409013,7.554858040400751,-170.8400697835169
120.3025036082117,-31.31758093703416,7.074704647887988,-172.0688635839048
121.4194884395047,-30.21874438605638,6.744607905358499,-172.722685160166
122.546844252913,-29.00635317193883,6.393704958977347,-174.3491807914999
123.6846673409437,-27.7654977089059,6.038363560576276,-175.0740321055675
124.8330548901612,-26.66101258887691,5.733734038876095,-176.0113552902712
125.9921049894873,-25.47278174267092,5.48420134019532,-176.6439586313062
127.1619166385803,-24.53452852207725,5.340582340205233,-177.2044626363294
128.3425897562904,-23.71742377835608,5.182365922568031,-177.6561068822093
129.5342251891947,-23.08446203667899,5.047008054522792,-177.8981361713373
130.7369247202105,-22.72540105464412,4.954246202229028,-178.6757969934766
131.9507910772894,-22.45136305944332,4.876046242716577,-178.9351595091103
133.1759279421916,-22.58374556843399,4.805329736696375,-179.6386984624343
134.4124399593418,-23.20153072054953,4.775821995421508,-179.9863373738457
135.6604327447672,-23.87438049704508,4.729751958010735,179.5661634263166
136.9200128951192,-24.33551829478193,4.736083643036009,179.1902594148944
138.1912879967776,-24.71119459132094,4.721228221580215,178.7622990147108
139.4743666350405,-25.84918485744868,4.738595614766083,178.5558441929045
140.769358403399,-26.53046470822521,4.716769751340468,178.4808436124557
142.0763739128976,-26.71959120968121,4.796449821278853,178.1610996327842
143.3955248015828,-27.0365505740801,4.808501419802583,177.9792178895407
144.7269237440378,-27.27423106404338,4.856332562087737,177.9961641171315
146.0706844610073,-27.45380389838309,4.859429644655525,177.0767227609601
147.4269217291101,-27.94748798732193,4.98189556743831,177.5251780370756
148.7957513906435,-28.11727212305106,4.925584065959246,176.7887803109897
150.177290363477,-28.61680663377671,4.998455882031324,177.1402572826996
151.5716566510398,-28.48220967413264,4.992786316343198,177.5141802328079
152.9789693523992,-28.06370233602254,4.883620152741167,177.7557862228416
154.3993486724336,-28.15261529351365,5.010978686804409,178.5477266018345
155.8329159321,-27.64039401726176,4.955824946292447,179.3975396001381
157.2797935787962,-27.3027300957158,4.816845095057988,-179.7919614510862
158.74010519682,-26.82418706080558,4.757240581273515,-178.984389340844
160.2139755179244,-26.64992895662065,4.610410518609948,-178.5453953264833
161.7015304319724,-26.53798801516309,4.425001313068434,-177.4390874262543
163.2028969976891,-26.81627924639088,4.196381772941103,-176.5518852401824
164.7182034535146,-28.19075989130667,4.001960041039459,-176.0449689081942
166.2475792285576,-28.7542846086619,3.721400925095092,-176.7054201813946
167.79115495365,-29.90501809852833,3.465260627423598,-177.6869420109139
169.3490624725054,-31.47656358380598,3.244181831636075,-179.512394566605
170.9214348529799,-32.48080250103884,3.157226340171077,177.8032274502644
172.5084063984381,-33.89996499466081,3.154145355659579,175.4377772090638
174.1101126592249,-36.23778825434515,3.581698519845602,172.1200153988525
175.7266904442427,-37.58481689379017,4.093453979795653,168.2397490055845
177.3582778326381,-39.94368229317183,4.256256111110705,164.9062646162209
179.0050141855945,-41.93249857590951,5.196287052550094,161.7347810382414
180.6670401582365,-44.31088627780461,6.134448615313048,156.3017954935288
182.3444977116434,-45.76062629645725,7.445069789748907,156.2844050158171
184.037530124975,-49.86409286912768,9.144651580802934,145.3673696750587
185.7462820077097,-51.12962986476424,11.32872780234515,157.8617933637802
187.470899311996,-49.7060272792845,11.04364113250698,161.7528796422078
189.2115293451192,-50.79282480036942,11.9840866739155,175.6406043353373
190.9683207820833,-50.39650826985799,11.53634278031176,-175.6284862192171
192.7414236783104,-48.83351954406012,10.03483902864421,-164.4290970458821
194.5309894824571,-49.24926550569254,9.694269451397693,-153.9361968852281
196.3371710493509,-47.14035244490834,8.064988777933559,-148.1450032275967
198.1601226530458,-43.41172494504956,6.464832909826476,-153.57359422589
200,-40.38227447986065,4.815311825832273,-155.5702182600175
