#Digilent WaveForms Network Analyzer - Bode
#Device Name: Discovery2NI
#Serial Number: SN:210321A36A5A
#Date Time: 2020-02-18 14:23:09.249
#Start: 50 Hz
#Stop: 200 Hz
#Steps: 151
#Wavegen: Wavegen1
#Amplification: 1 X
#Settle: 10 ms
#MinPeriods: 16 
#Channel: Channel 1
#Range: 5.4125 V
#Offset: -0.000188385 V
#Relative: no
#Channel: Channel 2
#Range: 5.49784 V
#Offset: 5.94039e-06 V
#Relative: yes

Frequency (Hz),Channel 1 Magnitude (dB),Channel 2 Magnitude (dB),Channel 2 Phase (*)
50.00000000000001,-30.67612419049928,31.63001517162184,-39.15450675510248
50.46424006059372,-34.25299698625413,31.04112795857993,-119.4717659264723
50.93279049786463,-32.01647818401528,26.89902944500581,-150.6437584439852
51.40569133280334,-30.2603648134602,24.10021643561165,-152.2817157366838
51.88298295798738,-29.899636589239,23.39978916681564,-154.1307963266887
52.36470614103135,-29.13221785066508,21.80850245904363,-162.7917681552713
52.85090202806904,-28.47419646112579,20.60837843071378,-163.2797686971435
53.3416121472679,-27.43849099460672,18.91811843350767,-160.8208251416601
53.83687841237617,-27.04661625833972,18.16869220796725,-160.7971977219562
54.33674312630292,-26.65621918337375,17.53966214972871,-163.6029969216583
54.84124898473131,-26.33772821669392,16.31902150487419,-169.9609121169559
55.35043907976544,-25.56878331094806,15.07268575872954,-171.3746372010076
55.86435690361101,-25.46180927233459,14.43855329487378,-170.6365656235645
56.38304635229024,-25.07083610607819,13.78336404141337,-167.9434571593851
56.90655172939114,-24.7081266616533,13.08733151337156,-168.3802478874616
57.43491774985176,-24.75068125370846,12.31595389014684,-169.320643524654
57.96818954377949,-24.30012752284891,11.87190300682283,-168.9599707562878
58.50641266030572,-24.23717628320123,11.52515671499405,-168.8284497460432
59.04963307147653,-24.36940602843428,11.11411519320647,-169.0240472884155
59.59789717617932,-24.29478399783846,10.75660746013163,-169.3509368727334
60.15125180410584,-24.37812412180717,10.41423465576923,-170.1042205890883
60.70974421975236,-24.52260844940447,10.1049200270015,-170.6010620327283
61.2734221264565,-24.63668318826977,9.726814831092049,-171.1423860159229
61.84233367047188,-24.98641121796469,9.370865788323574,-172.0500876261763
62.41652744508062,-24.70657867935704,9.07106633371942,-173.2930058829556
62.99605249474367,-24.70547091302612,8.714538722189053,-174.3640767290602
63.58095831929016,-24.73146145593146,8.35712444947988,-175.2247827170671
64.17129487814522,-24.813771085821,7.990295666054688,-175.8462566641754
64.76711259459735,-25.0024120025787,7.587220000257004,-176.1752379514632
65.36846236010527,-25.13552598164803,7.242902686353256,-177.1534429580939
65.97539553864472,-24.95125578043042,6.885352329165255,-177.0761484292564
66.5879639710958,-25.06806216690294,6.560981770935962,-177.4979821860252
67.20621997967088,-24.81647356475565,6.245864370694792,-178.2600882400423
67.8302163723836,-24.5551112839102,5.932916916348088,-178.772175687526
68.46000644755961,-24.55389136404502,5.639346266930905,-179.2760512353952
69.09564399838882,-24.41782875582813,5.288710989451197,-179.8132832814139
69.73718331752028,-24.30620509932486,4.915672680877739,179.6281666595075
70.3846792016995,-24.48445900467639,4.548750808744011,179.1882061837215
71.0381869564488,-24.29333862409203,4.168994049780286,178.3522711003206
71.69776240079139,-24.14756132508489,3.756828072937857,178.84663004737
72.3634618720189,-23.93657841037677,3.36181061414359,178.8458706923805
73.03534223050364,-23.72118047214854,3.046574763090191,179.7002224567063
73.71346086455507,-23.32126643093254,2.688561607535039,179.5174379476875
74.39787569532173,-22.98444258744951,2.335331169005727,179.9435861363787
75.08864518173853,-22.57928575252331,2.063258502643992,-179.7561901062254
75.78582832551992,-22.12798489813743,1.745332067121422,-179.6032334205314
76.4894846761996,-21.66524117745503,1.458925406975326,-179.0114109775456
77.1996743362168,-21.06708724550127,1.220545126917804,-178.5040989294412
77.91645796605,-20.47456210440114,0.880904814660036,-177.9240221475247
78.63989678939812,-19.64079404059567,0.5219751405744349,-177.4141585264024
79.37005259840998,-18.66895588523794,0.2457155159577983,-177.2629222472461
80.10698775896223,-17.62934367349765,-0.06911064941600788,-176.7240405699977
80.85076521598623,-16.58092702336179,-0.3902545412338201,-176.4367626649537
81.60144849884456,-15.61524516559427,-0.6915676813357035,-176.1237572100725
82.35910172675733,-14.65470933381843,-1.016092360042666,-175.7893271737568
83.12378961427879,-13.80903496230233,-1.321484759589381,-175.8683238517114
83.89557747682503,-13.36069063663489,-1.639924498618535,-176.1041344237601
84.67453123625273,-13.69316048090042,-2.005987867042415,-176.3380998666211
85.46071742648998,-14.85526847162542,-2.437978002795621,-176.422090282166
86.25420319921908,-15.93816285137713,-2.828988350427619,-175.6017314399441
87.05505632961243,-16.68501234813308,-3.083267841910142,-173.5381377008173
87.8633452221214,-17.97248085045079,-3.330465384335188,-174.0911824012086
88.67913891631906,-18.9667472258819,-3.653997325835088,-174.2850257140314
89.50250709279725,-19.78785333297414,-3.994984507631004,-174.4039550027544
90.33352007911824,-20.52871434407786,-4.431570257089716,-173.5450593114273
91.17224885582169,-21.31895274358459,-4.836543811817606,-173.0421941585751
92.01876506248752,-22.00951577003413,-5.396200296778452,-172.1075247129758
92.87314100385487,-22.70978530801372,-5.962605824083918,-171.5520591264143
93.73544965599802,-23.55010329633154,-6.521943172259208,-169.6844502828345
94.60576467255959,-24.22499088417489,-6.921718524088329,-167.2754325585675
95.48416039104167,-25.10932157914871,-7.709339156799691,-165.9197961899355
96.37071183915521,-25.83512345169336,-8.521837675843535,-163.1290432942399
97.26549474122857,-26.6502896276041,-9.57867255287651,-162.9149234291729
98.16858552467546,-27.49704728049346,-10.7379174161137,-162.3097353803118
99.08006132652297,-28.42055707112971,-12.89154266941114,-157.8019151225191
100,-29.46048580826231,-15.32073902572319,-141.961785106735
100.9284801211874,-30.586023082021,-18.31393014082274,-105.569857297472
101.8655809957292,-31.89996123405083,-15.51072993453412,-55.33592436876981
102.8113826656067,-33.02349343216412,-10.18974085508741,-42.64563656659673
103.7659659159747,-34.21332780407389,-6.720892456613069,-36.49429361855692
104.7294122820627,-35.76411477316964,-2.958773445420126,-30.74801943480428
105.7018040561381,-37.28998951521842,0.2630953383765023,-30.27449069435229
106.6832242945358,-39.57124959591184,4.027428104363495,-27.61904002037908
107.6737568247523,-41.49271477946883,6.964867631146241,-35.38290714735979
108.6734862526058,-44.13583270430911,10.62433904490463,-42.91815760195868
109.6824979694626,-47.81496874293125,15.76910353074878,-64.79086445329683
110.7008781595309,-47.46145187838692,16.38452897487272,-104.1704766568431
111.728713807222,-45.09278407096293,14.66046617536411,-132.3230198545018
112.7660927045804,-42.81338560755295,12.87726237975376,-141.6607945837959
113.8131034587823,-41.20051215735997,11.84444073775334,-150.3590086084875
114.8698354997035,-38.44194599656943,10.37499415136613,-159.7312939620205
115.936379087559,-37.28282262577785,9.482233418575902,-160.2244631360541
117.0128253206114,-35.58986120858852,8.723379494859273,-164.5437606453739
118.0992661429531,-34.41246960293072,8.118925443672573,-167.5040545427713
119.1957943523586,-33.21968799739345,7.670286563969475,-168.8227511568319
120.3025036082117,-32.10132195417637,7.208104358622437,-171.4194493637831
121.4194884395047,-30.97850581024626,6.807366485536174,-172.3959125298041
122.546844252913,-29.73678270002669,6.458996384559347,-173.5730649644034
123.6846673409437,-28.649771892981,6.136446041206253,-174.4496596917037
124.8330548901612,-27.38292671778994,5.845367153305334,-175.4478581550777
125.9921049894873,-26.2494511420674,5.562947384813266,-176.1449038780024
127.1619166385803,-25.17978519791024,5.354278257329574,-176.7357263630792
128.3425897562904,-24.27462555133023,5.185105588822902,-177.3236357246664
129.5342251891947,-23.61340876752174,5.093231826775721,-177.9042160064515
130.7369247202105,-22.8766044977243,4.993758068440091,-178.4982340829239
131.9507910772894,-22.34783373680867,4.900691527230289,-179.0320525545846
133.1759279421916,-22.4263377781891,4.814065971110489,-179.5707337513955
134.4124399593418,-22.99491906890045,4.776097220958825,-179.9268878795297
135.6604327447672,-23.74724237210978,4.761887265787764,179.8184913820531
136.9200128951192,-24.13707493875526,4.710930377568165,178.921682763831
138.1912879967776,-24.37872882305626,4.67797750305599,178.5572548164811
139.4743666350405,-25.73278608688879,4.672721996425809,178.5882599320733
140.769358403399,-26.62686666449167,4.710398715043512,178.2479152962838
142.0763739128976,-26.28961852478469,4.705765581921877,178.1419830548429
143.3955248015828,-26.50980022299176,4.749966888141592,178.0169259972827
144.7269237440378,-26.6585867678046,4.786347883124289,177.925073739546
146.0706844610073,-27.08788581934733,4.812358797391445,177.7623792796676
147.4269217291101,-28.29112065929772,4.958266709999571,177.8463067881183
148.7957513906435,-28.47345527072412,4.917836645914923,177.6375011109135
150.177290363477,-29.22899822078534,5.014759910546365,177.6805663993177
151.5716566510398,-29.04811670833865,4.977279222302938,177.854018524257
152.9789693523992,-28.73649218797314,4.961181481690021,178.4705415520645
154.3993486724336,-28.12274609110013,4.98335342103832,178.7703242531396
155.8329159321,-27.43987578712195,4.930523889275232,179.6394414501488
157.2797935787962,-27.25758085740949,4.819295291567169,-179.9812858847264
158.74010519682,-26.99612015644669,4.764770389997826,-178.9230423885823
160.2139755179244,-26.43167175103122,4.595329657062609,-178.5131654971952
161.7015304319724,-26.30504095052158,4.438499865304269,-177.4726677474695
163.2028969976891,-26.18465550812957,4.282886629018673,-177.1938051690187
164.7182034535146,-27.09282719701532,4.003738224425723,-176.4857237521868
166.2475792285576,-28.12101105769905,3.819466004824116,-176.7427518571481
167.79115495365,-29.46318754666876,3.465734063974511,-177.1883814948523
169.3490624725054,-31.16480628830505,3.284773467702748,-178.2571817512677
170.9214348529799,-32.13791675539358,3.127018339808923,178.8983834008702
172.5084063984381,-33.725225739177,3.102673590410895,175.1655494907523
174.1101126592249,-35.71076778334556,3.185124583451754,173.7797652345375
175.7266904442427,-37.86630877926786,3.730632259191561,168.9681916451101
177.3582778326381,-39.64865075565245,4.312035172542718,165.6339215708112
179.0050141855945,-43.48988705318899,5.523930758219342,157.0857127766584
180.6670401582365,-46.41719919723927,7.068601034497433,151.950614324344
182.3444977116434,-47.06344184399838,6.866504805424948,145.0679167610254
184.037530124975,-50.65863566239259,9.646384271652188,139.5664040705315
185.7462820077097,-52.0888064471002,11.14126002990978,146.8587603689208
187.470899311996,-54.58318511275608,13.67777394078211,155.9078803922275
189.2115293451192,-57.11693181325816,15.99130821070575,174.5161273166986
190.9683207820833,-55.06823515509904,14.16308741448778,-167.8958346228533
192.7414236783104,-52.40361792880159,11.38111564666937,-147.2784287254268
194.5309894824571,-51.6868284791971,10.96561213533242,-143.4851123046988
196.3371710493509,-47.15305707310201,7.753183478631395,-143.0483240342022
198.1601226530458,-43.61106787559818,6.027677999134498,-150.5494744828526
200,-41.3530291962559,5.485767193554821,-156.3475264738346
