#Digilent WaveForms Network Analyzer - Bode
#Device Name: Discovery2NI
#Serial Number: SN:210321A36A5A
#Date Time: 2020-02-18 14:24:13.471
#Start: 50 Hz
#Stop: 200 Hz
#Steps: 151
#Wavegen: Wavegen1
#Amplification: 1 X
#Settle: 10 ms
#MinPeriods: 16 
#Channel: Channel 1
#Range: 5.4125 V
#Offset: -0.000188385 V
#Relative: no
#Channel: Channel 2
#Range: 5.49784 V
#Offset: 5.94039e-06 V
#Relative: yes

Frequency (Hz),Channel 1 Magnitude (dB),Channel 2 Magnitude (dB),Channel 2 Phase (*)
50.00000000000001,-30.10901260434032,31.11571787266728,-41.07696772974575
50.46424006059372,-33.54432586838206,30.18748482065214,-118.6861634601738
50.93279049786463,-31.47888832073657,26.22205901912699,-145.8566229624494
51.40569133280334,-30.66234281481275,24.69390023943947,-148.7546578143288
51.88298295798738,-30.2879413411069,23.86451804382803,-157.3368823082243
52.36470614103135,-28.71320081772084,21.20567006199021,-160.173113022017
52.85090202806904,-28.57369712983051,20.65153828950298,-164.5263377712492
53.3416121472679,-28.00686312392358,19.52515599406771,-166.9868973808031
53.83687841237617,-27.22435065506268,18.01796890276387,-167.2872183782291
54.33674312630292,-26.74828242007747,16.97150345196712,-170.1009656897612
54.84124898473131,-26.15650809254205,16.02867741001389,-171.6071534500537
55.35043907976544,-25.67047028253107,15.05413922816075,-167.9004794496941
55.86435690361101,-25.26187370939841,14.34284199684188,-170.3616614672164
56.38304635229024,-25.02171779607092,13.907523048817,-170.6807629564865
56.90655172939114,-24.76547202744932,13.07726403152467,-169.7097785480128
57.43491774985176,-24.46677178945142,12.4252967266124,-168.8618415437826
57.96818954377949,-24.333317378417,11.91640132820922,-168.7319975282642
58.50641266030572,-24.43825863027623,11.48312350882376,-168.9134891623144
59.04963307147653,-24.3374154519814,11.16935885140299,-168.3059454930138
59.59789717617932,-24.45834652773362,10.77430987614164,-168.8021424754462
60.15125180410584,-24.509212247083,10.44519763342781,-169.5743761176687
60.70974421975236,-24.55951610741492,10.0954405958623,-169.9278844055606
61.2734221264565,-24.94419846440453,9.685952397425492,-171.1454255904544
61.84233367047188,-24.77310353163114,9.459560040427094,-172.131945273986
62.41652744508062,-25.06728041242167,9.020159471513296,-173.2045540973372
62.99605249474367,-24.77390484438397,8.710450158386399,-173.6664600822888
63.58095831929016,-24.81930432980215,8.347400281879844,-174.5865702036373
64.17129487814522,-24.95826681088781,7.979131093772774,-175.1000252634875
64.76711259459735,-25.13886088259351,7.671170277162,-176.2429361223073
65.36846236010527,-24.95890702171082,7.309597840835135,-176.2132953839715
65.97539553864472,-25.02651523604955,6.99519859983151,-177.2577857357511
66.5879639710958,-24.90354837050018,6.625539457577748,-177.5453485163569
67.20621997967088,-25.09052645740864,6.227420608319826,-177.7445342401329
67.8302163723836,-25.30739183431606,5.838865688160472,-178.1467823296441
68.46000644755961,-25.04960390659805,5.583170814261442,-178.8140313247225
69.09564399838882,-24.91136993971743,5.169416443448384,-179.4832817922822
69.73718331752028,-24.65071462527912,4.919771607543401,179.6224435952058
70.3846792016995,-24.70801891616052,4.491743767345001,179.4020299129513
71.0381869564488,-24.75027404521867,4.059994247226509,178.9674449110227
71.69776240079139,-24.49163121964319,3.725180843093037,179.240356603091
72.3634618720189,-24.19357183446314,3.372770513919111,179.2319290400859
73.03534223050364,-23.81440343554001,3.02475747476177,179.5119973130146
73.71346086455507,-23.54675037294721,2.708281672211625,179.6881470636177
74.39787569532173,-23.2605419006442,2.423590083957553,179.9901395637984
75.08864518173853,-22.8457770695192,2.103358244044819,-179.7581354636357
75.78582832551992,-22.4525504006841,1.794830234625783,-179.0803937926757
76.4894846761996,-21.93374880435184,1.477851486723838,-178.8480822190583
77.1996743362168,-21.3504692402947,1.212966874259715,-178.3495067083446
77.91645796605,-20.72620470561761,0.9631720118050137,-178.1770621535815
78.63989678939812,-20.04089675631219,0.6318614425062317,-177.2814051547412
79.37005259840998,-19.13251561699746,0.2827810012047061,-176.7654869203554
80.10698775896223,-18.1382116591495,-0.04705602613948889,-176.4684216710968
80.85076521598623,-16.95396055673683,-0.3373936666623464,-176.3598538531505
81.60144849884456,-15.76672393887732,-0.6534793813179329,-175.8943300752105
82.35910172675733,-14.56179917260351,-1.03187007201595,-175.8133751975363
83.12378961427879,-13.69635744670434,-1.317082219734676,-175.7627428096812
83.89557747682503,-13.25758940772945,-1.61736652974492,-176.1009020950581
84.67453123625273,-13.60052559243419,-1.964894734203417,-176.2578549171133
85.46071742648998,-14.69513558399703,-2.355763786105766,-176.6434705443774
86.25420319921908,-15.84773348846262,-2.790286580886328,-176.4138562787818
87.05505632961243,-16.61804215528328,-3.186845343174086,-174.6231516089656
87.8633452221214,-18.02162278509238,-3.529597459874503,-174.9967406961952
88.67913891631906,-19.09949497175503,-3.980304507563146,-174.8470876992511
89.50250709279725,-19.97807966023316,-4.417374976449453,-173.261584711699
90.33352007911824,-20.76422975212696,-4.748321741653379,-172.260241375161
91.17224885582169,-21.580056467425,-5.255845089865911,-170.6132873632864
92.01876506248752,-22.20411259152506,-5.684154827230104,-170.5115975956305
92.87314100385487,-22.8543497035782,-6.215895653729916,-168.0033796078123
93.73544965599802,-23.6614413763083,-6.546620186553387,-167.3889491642565
94.60576467255959,-24.32313518998221,-7.099933164267389,-165.6587816348288
95.48416039104167,-25.11494010724328,-7.799736944888048,-164.3346912204497
96.37071183915521,-25.85098888112384,-8.573156883617305,-163.3699244629905
97.26549474122857,-26.76569702215267,-9.680706451834608,-161.3730048940998
98.16858552467546,-27.59633698820785,-11.19907415265719,-159.7777287101334
99.08006132652297,-28.43539388318543,-13.50730311585139,-154.5901259446343
100,-29.5277158998636,-16.32590598520832,-140.5580435379458
100.9284801211874,-30.6250414660841,-17.62036397569417,-98.95915212115423
101.8655809957292,-31.71867463744179,-15.03794287342948,-54.75162404102765
102.8113826656067,-33.2835449987782,-9.866408188887734,-30.97234233416244
103.7659659159747,-34.43872521479183,-5.80492812025038,-26.17491210316736
104.7294122820627,-35.90475979570105,-2.225222228376218,-27.86512439520688
105.7018040561381,-37.88407000907659,1.350156223343717,-27.96142916021547
106.6832242945358,-39.22384246572339,3.788722824963039,-31.00971946899399
107.6737568247523,-41.75303283262973,7.667404535418807,-37.98257159528097
108.6734862526058,-44.33209819691113,11.29151007894341,-49.48820054441374
109.6824979694626,-46.73834573706938,14.58884707393772,-68.55036656174406
110.7008781595309,-47.06958837168861,15.85607592104416,-107.1746355448454
111.728713807222,-44.6864771115007,14.50881737611247,-132.6582319597542
112.7660927045804,-42.32883603234809,12.69360752892277,-144.7041584443006
113.8131034587823,-40.79135966756827,11.72832481842882,-151.7759870713664
114.8698354997035,-38.33210983622876,10.47620445912883,-161.5695278778929
115.936379087559,-36.92058860695865,9.397948297654841,-160.9112324016425
117.0128253206114,-35.46336611037741,8.753370691933629,-165.5017246520775
118.0992661429531,-34.21664249179482,8.195883783926902,-168.0050479652056
119.1957943523586,-32.76276552570783,7.507145014319172,-169.5415886419122
120.3025036082117,-31.79041251613598,7.180546312472971,-171.0263521556552
121.4194884395047,-30.67365093902295,6.773941648852996,-172.1634807310361
122.546844252913,-29.31964118735012,6.38606675383371,-173.4038651129979
123.6846673409437,-28.02502225297289,6.076899954665345,-174.6822001161293
124.8330548901612,-27.08731786395146,5.84698981839494,-175.6861372328767
125.9921049894873,-26.03289610272705,5.559083887948385,-176.2934269705824
127.1619166385803,-25.30251607967287,5.246741470643689,-176.4508584011795
128.3425897562904,-24.29010103903682,5.182481740905505,-177.1996105152857
129.5342251891947,-23.55076652549836,5.070511372193014,-177.7435983254106
130.7369247202105,-22.91117312654151,4.959223060628625,-178.3478652438786
131.9507910772894,-22.38271041691721,4.877308983678692,-178.9208824475544
133.1759279421916,-22.40482330002646,4.826842314277258,-179.516227239975
134.4124399593418,-22.69341885111459,4.778822247000499,179.9600423433306
135.6604327447672,-23.48499260538066,4.744132634811341,179.6365383271003
136.9200128951192,-24.07226526741994,4.742942337097019,179.2941032829907
138.1912879967776,-24.21106136293311,4.686037803458992,178.6691632902874
139.4743666350405,-25.55215103832067,4.668243670448748,178.6056031891279
140.769358403399,-26.66385136725513,4.764398117333402,178.5205245836823
142.0763739128976,-26.72189506374778,4.704816951136593,178.1089027456472
143.3955248015828,-27.11948072238641,4.774272619461809,178.2565712081839
144.7269237440378,-26.96179042944092,4.761566667625384,178.0022442850121
146.0706844610073,-27.21945109201563,4.812195975973367,177.8584052291707
147.4269217291101,-27.61192838012276,4.866419495666268,177.8242770509498
148.7957513906435,-28.12097642419754,4.98653332219725,177.9787578165825
150.177290363477,-28.23132485947387,4.961326806915244,177.7912257532694
151.5716566510398,-28.77956682540531,5.094952149662038,178.0750155264782
152.9789693523992,-28.24836173538828,4.929046039631108,178.7065320053282
154.3993486724336,-28.15076132239502,4.928028652833074,178.9906407726993
155.8329159321,-27.64260318520049,4.855254979469922,179.2150355750539
157.2797935787962,-26.71083921358282,4.789731294445848,-179.7787833410173
158.74010519682,-26.66247403400783,4.700903105896524,-179.1546938818553
160.2139755179244,-26.29112811747312,4.564027522048713,-178.3747939649336
161.7015304319724,-25.95096179082116,4.415114047437546,-177.589419881606
163.2028969976891,-26.37770323065187,4.202047151922424,-176.6394004174772
164.7182034535146,-27.33512519462618,4.010427955306037,-176.4015208211053
166.2475792285576,-28.27286874598703,3.752248204784108,-176.3264286560821
167.79115495365,-29.82676217028277,3.479340409657734,-177.2457856071147
169.3490624725054,-31.69765985069066,3.17357490461645,-178.6532500476254
170.9214348529799,-33.17449082113483,3.137583950017154,177.9795136278009
172.5084063984381,-34.42471192251957,3.008215946435257,176.837290869562
174.1101126592249,-35.08492169952108,3.325687779114315,174.0316673758974
175.7266904442427,-38.14983828045368,3.845352249274601,168.9143882401564
177.3582778326381,-38.93083904209143,4.47878101238485,166.6709796920615
179.0050141855945,-42.16056321163387,4.796983533632347,160.0833154877677
180.6670401582365,-44.51579993869949,5.762213341204168,156.2365591444844
182.3444977116434,-45.5288604447054,7.119059638519128,153.7708445640307
184.037530124975,-53.37645943579773,11.74944133144601,147.5256673527021
185.7462820077097,-48.97122975303282,9.686602711542623,149.7772019058379
187.470899311996,-52.57020803184113,11.83995072009463,146.4544467835366
189.2115293451192,-53.88726219346584,13.4734801975344,159.4698377859621
190.9683207820833,-53.56196689234447,13.39249737056273,-174.7330780171843
192.7414236783104,-49.86455428289388,10.62596393481136,-165.4652925148318
194.5309894824571,-48.83014058879952,9.179963521750818,-146.4262551013642
196.3371710493509,-47.34560445499245,8.354822891634468,-147.3890606622537
198.1601226530458,-43.20399658238838,6.32241230831214,-152.3838231429584
200,-40.29230954989139,5.013997771847118,-156.3547573848847
