#Digilent WaveForms Network Analyzer - Bode
#Device Name: Discovery2NI
#Serial Number: SN:210321A36A5A
#Date Time: 2020-02-18 13:24:11.211
#Start: 50 Hz
#Stop: 200 Hz
#Steps: 151
#Wavegen: Wavegen1
#Amplification: 1 X
#Settle: 10 ms
#MinPeriods: 16 
#Channel: Channel 1
#Range: 5.4125 V
#Offset: -0.000188385 V
#Relative: no
#Channel: Channel 2
#Range: 5.49784 V
#Offset: 5.94039e-06 V
#Relative: yes

Frequency (Hz),Channel 1 Magnitude (dB),Channel 2 Magnitude (dB),Channel 2 Phase (*)
50.00000000000001,-22.37447676110321,3.597115715927204,-2.551846796964725
50.46424006059372,-22.27784118442933,3.58118694352396,-1.621674835552966
50.93279049786463,-22.1938601273162,3.680531328244918,-1.452617912485067
51.40569133280334,-22.08486822762894,3.760784510566824,-1.34128085079692
51.88298295798738,-21.54788934900603,3.912756520264478,-0.9216970747999085
52.36470614103135,-21.74010253351528,4.015708719469523,-1.107537806732729
52.85090202806904,-21.37850104079627,4.167098984055996,-0.8959159153101268
53.3416121472679,-21.20114611755113,4.261006180921221,-0.8162768416368706
53.83687841237617,-21.09382390921967,4.37520910560689,-0.8302230097789618
54.33674312630292,-20.82893289774923,4.501039248419627,-0.9243310500884832
54.84124898473131,-20.49889903972026,4.633203065618688,-1.248072809613255
55.35043907976544,-20.56232664178854,4.677981357784779,-1.351842159122754
55.86435690361101,-19.86288770736486,4.844631392149762,-1.380962458659064
56.38304635229024,-19.69505250442336,4.940033633857401,-1.455404440907813
56.90655172939114,-19.39430163864348,5.047750960524212,-1.369289097668727
57.43491774985176,-18.98217740944824,5.213952184240219,-1.289894931804199
57.96818954377949,-18.65021014473935,5.359983207593572,-1.685662375618904
58.50641266030572,-18.1725575081696,5.541913509366792,-1.453671753234538
59.04963307147653,-18.11841333217821,5.688036588406698,-1.610175932404367
59.59789717617932,-17.23760977821651,5.873031633895661,-1.844104735397604
60.15125180410584,-16.69571702927452,6.054005356643289,-2.290778543698252
60.70974421975236,-15.98703663142888,6.230369753148516,-2.572186987576302
61.2734221264565,-15.534362533351,6.392572874753909,-3.055208585983877
61.84233367047188,-14.62308749440677,6.612625095620928,-3.414545024968099
62.41652744508062,-14.10664636722218,6.793414871439147,-4.079891667455627
62.99605249474367,-13.48749233591119,7.075586211166281,-4.594297654592296
63.58095831929016,-13.15275387420354,7.297097212497819,-5.317109317366928
64.17129487814522,-13.07201225050719,7.511294444141892,-6.048801713348936
64.76711259459735,-13.07616078796886,7.710027040627592,-6.620945360490197
65.36846236010527,-12.93184248500622,7.922898799051098,-7.284453962152725
65.97539553864472,-12.77138450204625,8.208712523377443,-7.710904975689274
66.5879639710958,-12.76364770802365,8.480090483690406,-8.281429428580708
67.20621997967088,-13.09706309515756,8.794660620775181,-8.941492671245967
67.8302163723836,-13.6978635769303,9.123186508751102,-9.675158711654966
68.46000644755961,-14.48632960172718,9.468165812877988,-10.70470847140895
69.09564399838882,-15.45775477987777,9.817276536633152,-11.88337036499087
69.73718331752028,-16.56733416526343,10.17062143500583,-13.54733901891419
70.3846792016995,-17.36809381702169,10.44447594433966,-15.50400608228725
71.0381869564488,-18.18505381667142,10.72661479987145,-17.55552659488843
71.69776240079139,-18.99633039275859,11.01137780666073,-19.81183334809251
72.3634618720189,-19.60731815012151,11.18467644730121,-22.53783757288043
73.03534223050364,-20.249916864574,11.40121707565966,-25.21544733674268
73.71346086455507,-20.73329515050829,11.51671077017219,-28.07010060358066
74.39787569532173,-21.06704222211777,11.58330904273766,-31.25761692518103
75.08864518173853,-21.22901877550002,11.59670444147175,-34.02163768159318
75.78582832551992,-21.23190165751367,11.52648105674084,-36.51310650008853
76.4894846761996,-21.09372984625246,11.49425564683368,-38.17779520630045
77.1996743362168,-21.03832575714096,11.61160024695465,-39.98983180131076
77.91645796605,-21.21539456806612,11.83727975700065,-42.44545344715468
78.63989678939812,-21.31846399415277,11.97553057266126,-45.74952496000492
79.37005259840998,-21.43254263969121,12.00996308716,-49.93423696464427
80.10698775896223,-21.27849480262794,11.93795330997544,-54.07650785169464
80.85076521598623,-20.93510071814777,11.723227201675,-58.1516964327261
81.60144849884456,-20.38630119838739,11.52133747673807,-61.82587113102352
82.35910172675733,-19.69326268677511,11.27831654263311,-65.09659856427476
83.12378961427879,-19.08120542462008,11.21010306992637,-68.71994196949171
83.89557747682503,-18.61205305907478,11.16696602758497,-72.40316898199676
84.67453123625273,-18.46096797940334,11.28869730009642,-78.25380007521537
85.46071742648998,-18.78165913649008,11.78505996295785,-88.29056467576152
86.25420319921908,-19.81589615078188,12.67583802674833,-106.6845207483801
87.05505632961243,-21.4063814538999,13.74969839342409,-139.483309075793
87.8633452221214,-22.23846548350178,13.38120018258732,175.8797075825814
88.67913891631906,-21.39154762129015,10.07519448754747,136.1382935630099
89.50250709279725,-20.66363374680797,7.101154024363242,112.03336069965
90.33352007911824,-20.30638604154993,5.152273622523299,92.79490528270696
91.17224885582169,-20.13484354974461,3.904861711693798,74.5430722869495
92.01876506248752,-20.15300932619054,3.423626666146273,56.23249300990248
92.87314100385487,-20.15616243832229,2.554180194470483,38.27029378395769
93.73544965599802,-20.62288902603861,1.404328683365274,26.30433132095152
94.60576467255959,-21.17905128223818,1.126403627041266,17.19934069437539
95.48416039104167,-21.85662684969488,0.4086392891019272,7.91093083567111
96.37071183915521,-22.51753185500757,0.3841901170658845,2.509967240245516
97.26549474122857,-23.11766666486225,0.8280812932831511,0.08230228664757533
98.16858552467546,-23.83694530454737,1.068091319287578,-2.313906099895775
99.08006132652297,-24.43300644239787,1.300874911222816,-2.81913614895706
100,-24.99833707992474,1.890553602589931,-4.424692056727338
100.9284801211874,-25.63426081334708,2.144958512922816,-2.327305050821675
101.8655809957292,-26.18478131346848,2.440003656333418,-3.027803839285475
102.8113826656067,-26.58649706509155,3.330310743803559,-4.485758695929775
103.7659659159747,-27.0339918234981,3.771106710137783,-5.437345561888637
104.7294122820627,-27.51381736282534,4.622882249135086,-6.216828498240773
105.7018040561381,-27.89051806699321,4.680312963643495,-7.258983397998776
106.6832242945358,-28.3079222839711,5.336246320177766,-8.765693831216453
107.6737568247523,-28.79847681030832,5.685824419069744,-8.50422045388396
108.6734862526058,-29.25182689287682,6.150516342084032,-8.781631622428307
109.6824979694626,-29.66649538128559,6.666846495277532,-10.51604381133939
110.7008781595309,-29.94704645142345,7.00829964603277,-11.98045236843277
111.728713807222,-30.49600649489278,7.377572380672647,-12.15696760307061
112.7660927045804,-30.91674892434153,7.615468315314051,-14.19497608386918
113.8131034587823,-31.34174955671292,8.230388993741657,-12.66703239710596
114.8698354997035,-31.71386930535238,9.052909380828378,-14.46931080499468
115.936379087559,-32.42596746513227,9.110625579670526,-16.02785624879041
117.0128253206114,-32.62023651773471,9.688550410467286,-18.35381185403569
118.0992661429531,-33.20694713762759,10.11108336982477,-18.96025699030767
119.1957943523586,-33.55345313776206,10.59742183146534,-20.30467005284004
120.3025036082117,-34.02031536417336,11.0326058310549,-21.60279300756977
121.4194884395047,-34.44793606069174,11.47552512016036,-23.06769987948711
122.546844252913,-34.92186099406114,12.21018385411419,-23.6037360341592
123.6846673409437,-35.28598803430597,12.70369625253945,-26.11949381408601
124.8330548901612,-35.52353529592804,13.25887317627799,-27.32044681876611
125.9921049894873,-36.01574433793958,13.95230806331816,-30.99424704295478
127.1619166385803,-36.35678194330694,14.44928743535279,-34.47421493028247
128.3425897562904,-36.54227066603191,14.81873820024386,-37.4057042841722
129.5342251891947,-36.89936273219429,15.41718699076292,-40.50299899692124
130.7369247202105,-37.13537497670314,16.0181137391462,-45.36071804250983
131.9507910772894,-36.91407092726848,16.42627176609591,-47.8573380399463
133.1759279421916,-37.23516127440764,17.00549604888216,-51.21176013320041
134.4124399593418,-37.95376858237086,17.77544446979188,-54.18129064041626
135.6604327447672,-39.35767723524489,18.91766177734073,-57.94675099566804
136.9200128951192,-41.56246729884089,20.99308184287086,-70.51811024815966
138.1912879967776,-42.27807258776473,21.11732124205837,-89.6270741324177
139.4743666350405,-42.59848112769231,19.44639055563059,-97.44733540182517
140.769358403399,-43.14135244309709,19.69770058262232,-100.3898743933272
142.0763739128976,-42.79617042248819,19.74977592264587,-114.7491446812566
143.3955248015828,-43.38044912303039,19.16984204563326,-123.3057989286086
144.7269237440378,-43.69155878045756,17.82863240203998,-127.7187599321002
146.0706844610073,-44.46894804560902,18.15317721974295,-128.5326453277687
147.4269217291101,-44.81114881172824,18.11212454318784,-144.9410842318737
148.7957513906435,-44.83169202401007,17.06902958687898,-152.6890558466515
150.177290363477,-44.50696538401495,16.23268044190738,-155.1916737607017
151.5716566510398,-44.71979256601406,15.86028093096214,-164.2424358964562
152.9789693523992,-45.20064116704604,15.66202734757386,-175.9627795842608
154.3993486724336,-45.97060755346639,15.19689759916112,175.6181327302299
155.8329159321,-45.80415644538412,13.6211565952069,167.4995881269994
157.2797935787962,-46.29933691793631,13.32199039363663,158.7329774617779
158.74010519682,-46.92913320960746,12.89209142670818,149.3545978374993
160.2139755179244,-46.70604574538724,11.38615695535899,138.4004392042337
161.7015304319724,-47.64444052168092,11.63136430930489,133.3551611554732
163.2028969976891,-47.59920481735424,11.35677143265143,120.2326056358517
164.7182034535146,-47.91647215756957,11.61319095809216,109.2549379701201
166.2475792285576,-48.09196927661976,12.15934970104605,98.12128280248294
167.79115495365,-48.61231337167348,12.83421408440925,86.05622692361908
169.3490624725054,-49.50968200459255,14.09474093493558,73.31615445976549
170.9214348529799,-50.55630355855737,15.52430266948221,65.97760193437836
172.5084063984381,-51.95872032320683,17.74410441942226,47.93222479140988
174.1101126592249,-53.74909320336496,19.60520824718338,29.53811052100042
175.7266904442427,-54.01180403256298,19.33277120631271,-2.945048692227616
177.3582778326381,-56.11871486666765,21.33745462608381,-27.54697793870755
179.0050141855945,-53.98301463702393,18.94944000420494,-42.26853048646021
180.6670401582365,-54.17826071255543,18.3822622679222,-66.30740929914958
182.3444977116434,-53.82443186181145,17.72755220108598,-69.99775585773835
184.037530124975,-52.31745222573898,16.20011765856503,-83.23561060948384
185.7462820077097,-51.79967841779763,15.76022234710661,-98.52676559647284
187.470899311996,-49.75508016362294,14.04656837320863,-102.8804907751483
189.2115293451192,-49.17568911630966,13.46885317956178,-111.2021930218707
190.9683207820833,-48.15245889161729,12.74021688108628,-120.618779251494
192.7414236783104,-47.38836180117111,12.04532212968491,-135.7051093233855
194.5309894824571,-46.56327049127694,11.35598612657087,-145.6107019405239
196.3371710493509,-44.97417408873857,10.66693449031491,-158.5398555012828
198.1601226530458,-44.30220903291325,10.24343415937578,-175.1829537715583
200,-45.28925026203551,12.20564706444361,169.0742083897537
