#Digilent WaveForms Network Analyzer - Bode
#Device Name: Discovery2NI
#Serial Number: SN:210321A36A5A
#Date Time: 2020-02-18 13:26:05.075
#Start: 50 Hz
#Stop: 200 Hz
#Steps: 151
#Wavegen: Wavegen1
#Amplification: 1 X
#Settle: 10 ms
#MinPeriods: 16 
#Channel: Channel 1
#Range: 5.4125 V
#Offset: -0.000188385 V
#Relative: no
#Channel: Channel 2
#Range: 5.49784 V
#Offset: 5.94039e-06 V
#Relative: yes

Frequency (Hz),Channel 1 Magnitude (dB),Channel 2 Magnitude (dB),Channel 2 Phase (*)
50.00000000000001,-22.32834765894405,3.489194088557493,-2.384224048547338
50.46424006059372,-22.19680273370383,3.529468202111463,-1.365711331821814
50.93279049786463,-21.9259019214447,3.66134394502539,-0.8999532597203341
51.40569133280334,-21.77195077858217,3.823390379603872,-0.8077889170344008
51.88298295798738,-21.92323219736405,3.938754453505616,-1.238835361340961
52.36470614103135,-21.52425417154399,4.058174589830275,-0.9186592035345313
52.85090202806904,-21.50093992877538,4.146477200841696,-1.113852645863233
53.3416121472679,-21.2874479355403,4.325392911142186,-1.171575022059343
53.83687841237617,-21.0434104685515,4.437136363096725,-1.10037813402559
54.33674312630292,-20.80602134288298,4.542706359962787,-1.407355373008645
54.84124898473131,-20.53587191434665,4.635449736863317,-1.333378620202751
55.35043907976544,-20.25285476800476,4.751803080418936,-1.198728495555031
55.86435690361101,-20.06870921153915,4.858533047024068,-1.671323843891003
56.38304635229024,-19.58686214616895,4.973826317713793,-1.509386562349231
56.90655172939114,-19.31228401795772,5.098866220214047,-1.450816645955975
57.43491774985176,-19.10086999941301,5.209541361224423,-1.838358673302378
57.96818954377949,-18.74577393262789,5.371298931495189,-1.426213961324144
58.50641266030572,-18.40316647235095,5.518154967510159,-1.624386109750873
59.04963307147653,-17.94397629839872,5.652644218993661,-1.766268272457239
59.59789717617932,-17.69027784304725,5.824625153884462,-1.826009315705576
60.15125180410584,-17.21974490287306,5.985754243290616,-2.150455646383321
60.70974421975236,-16.44833129315445,6.148033451831239,-2.451164592567039
61.2734221264565,-15.62187218616233,6.368533020802978,-2.859410793405843
61.84233367047188,-14.82597022627008,6.562878726934905,-3.365741944528537
62.41652744508062,-14.13628269008713,6.783288920199898,-3.856711672549785
62.99605249474367,-13.65087485548714,7.006198092201187,-4.511839583004431
63.58095831929016,-13.29731791550434,7.269428142280773,-5.197809812386538
64.17129487814522,-13.07345809466185,7.50210574130876,-5.89584917595289
64.76711259459735,-12.99685020150046,7.725370574273141,-6.630443650404544
65.36846236010527,-12.97852809119591,7.959402382464668,-7.347167749665765
65.97539553864472,-13.04931333288933,8.179295315225167,-7.857326457701951
66.5879639710958,-12.96980179749799,8.461088571246462,-8.529000219700963
67.20621997967088,-12.95118865259437,8.789044148454662,-8.7069199539918
67.8302163723836,-13.64931519568232,9.123580872388494,-9.473956754971226
68.46000644755961,-14.58208754490071,9.461176221994631,-10.64589860932328
69.09564399838882,-15.58568448001507,9.82246460425619,-11.83602635905321
69.73718331752028,-16.56668248896705,10.13309442079569,-13.46618807423167
70.3846792016995,-17.44887618465049,10.43829304357264,-15.50508811899583
71.0381869564488,-18.26362669267728,10.69492877925116,-17.7236152714967
71.69776240079139,-18.97585771357186,10.93409163204943,-19.94731961542796
72.3634618720189,-19.71293757468089,11.18264740670221,-22.54698031570311
73.03534223050364,-20.24104262806558,11.34506050210767,-25.2456391849763
73.71346086455507,-20.71282070378351,11.42812851942153,-28.40651234807993
74.39787569532173,-21.0325111178402,11.52580244137519,-31.21764546656893
75.08864518173853,-21.21634025659801,11.52521276758847,-33.87422623806069
75.78582832551992,-21.25106831254219,11.50093496501254,-36.35490560234707
76.4894846761996,-21.17596167938199,11.48615817420169,-38.52269183383413
77.1996743362168,-21.13258523579511,11.62079671477656,-40.19708368859732
77.91645796605,-21.22268365954698,11.756177255624,-42.56481444882212
78.63989678939812,-21.35216793907373,11.93242484603405,-45.97689558611509
79.37005259840998,-21.43427911173824,11.99019736581988,-49.63066792030889
80.10698775896223,-21.28505212787821,11.87984740098128,-53.68841956710641
80.85076521598623,-20.91638799371615,11.65505393084305,-57.78202946474973
81.60144849884456,-20.31715482091655,11.42405414452937,-60.98764691866912
82.35910172675733,-19.66099885010016,11.2245241637788,-64.03838049109974
83.12378961427879,-19.02946129054917,11.08427342291294,-67.11594171424565
83.89557747682503,-18.57167356584826,11.00740521644433,-70.62994834611422
84.67453123625273,-18.45613667737009,11.12212973867995,-76.35646658423835
85.46071742648998,-18.70946437430501,11.57663691336258,-84.9229150135606
86.25420319921908,-19.64297042307106,12.43681827111198,-101.5707237150599
87.05505632961243,-21.21032065172042,13.49173642170662,-129.2968881772532
87.8633452221214,-22.45333689791316,13.66760868580596,-172.8891078101545
88.67913891631906,-21.91647223850978,11.01276859096247,143.926089656233
89.50250709279725,-21.02007430574655,8.082602880502352,117.3571372114276
90.33352007911824,-20.42872100820029,6.019815077511671,94.67026466495489
91.17224885582169,-20.22458641389905,4.878362085134364,75.52458158389331
92.01876506248752,-19.91373405592279,4.15617896186988,56.06679017389631
92.87314100385487,-19.92106279709235,2.866033024844482,38.30414431681528
93.73544965599802,-20.46984807346879,1.484656880742592,25.80579181283235
94.60576467255959,-21.04797521098465,1.155292491976578,16.08124882932317
95.48416039104167,-21.78771482638204,0.3801234206559215,7.459008643543876
96.37071183915521,-22.40691963172267,0.3826857861274806,2.933472403331791
97.26549474122857,-23.11085474473236,0.6993582981109061,-0.5777462064113195
98.16858552467546,-23.76932124785115,0.8374493235820729,-2.932739371481045
99.08006132652297,-24.44378449894675,0.9792966828194326,-3.166145241663315
100,-25.01572232766283,1.497839117313533,-4.290849246857135
100.9284801211874,-25.60069568878572,1.775302879790812,-2.538377274388807
101.8655809957292,-26.12410311416868,2.215593087591899,-1.86072748717217
102.8113826656067,-26.62204336966633,3.340733500600333,-4.136825659892711
103.7659659159747,-27.09166199393717,3.830855160959259,-4.818071096428241
104.7294122820627,-27.48387805840891,4.464999587158322,-4.435120662684469
105.7018040561381,-27.82552788011751,4.834838302847762,-7.166810990361129
106.6832242945358,-28.258399202426,5.338152791605358,-6.883061337758992
107.6737568247523,-28.78878798620196,5.610790122051825,-8.411987930254046
108.6734862526058,-29.24352656157302,6.046639259357742,-9.854892269935846
109.6824979694626,-29.65639559384932,6.501040491308043,-9.423781931698301
110.7008781595309,-29.94430467937779,7.171656802208766,-11.12514478965545
111.728713807222,-30.47940972120209,7.339904462106791,-12.77605336952323
112.7660927045804,-30.99752087385833,7.78787534636281,-13.20416494987049
113.8131034587823,-31.37260954243675,8.162093207523878,-12.06412241672302
114.8698354997035,-31.68915588119699,8.981226697811234,-14.62272460463544
115.936379087559,-32.44491510730675,9.065107812682045,-15.55159364850569
117.0128253206114,-32.69966329103462,9.845227352737723,-17.38275719954089
118.0992661429531,-33.11941485574131,10.2469031722507,-17.69416886716118
119.1957943523586,-33.53354211929302,10.7014213568802,-20.14531848220138
120.3025036082117,-33.96024774112411,11.20547209331145,-20.73380299238168
121.4194884395047,-34.44900384466823,11.75986615592619,-21.95823872558907
122.546844252913,-34.68598690908292,12.24780466165472,-22.49288368133631
123.6846673409437,-35.09499464525189,12.91722590342698,-24.86993120336603
124.8330548901612,-35.46915571992913,13.56180502998319,-28.21807456516089
125.9921049894873,-35.84527002753995,14.11919634002435,-31.56984643870945
127.1619166385803,-36.28007662602536,14.68711615710155,-34.28434024978823
128.3425897562904,-36.62547717042645,15.14184176653622,-37.7629236603525
129.5342251891947,-36.90162495639995,15.64572701358589,-40.61044741688758
130.7369247202105,-36.93067800138201,16.13427140550515,-44.89409090927667
131.9507910772894,-37.08350096050344,16.71452034975555,-48.20747826485021
133.1759279421916,-37.34254741640016,17.15890561435051,-51.094070641255
134.4124399593418,-38.1557633218298,17.87590450266434,-55.34635814603276
135.6604327447672,-39.95281175238802,19.10938112918277,-59.90964935140475
136.9200128951192,-42.14762250516063,21.0551276681534,-71.66481297226886
138.1912879967776,-42.1752674057971,20.17906217945526,-93.32686801862853
139.4743666350405,-42.33658187169573,18.8358518373629,-93.3044218071166
140.769358403399,-42.4041445239833,19.59761580409922,-94.10562671359224
142.0763739128976,-42.72097213899044,19.88011098280472,-109.791589585475
143.3955248015828,-43.32668513562627,19.28387674334165,-120.3744294693493
144.7269237440378,-43.71148035559087,17.99282721249235,-124.7954790264
146.0706844610073,-44.73311963760928,18.36583245523899,-128.4766814340334
147.4269217291101,-44.72899131129807,18.06935384603851,-143.1778487676013
148.7957513906435,-44.50190892040549,16.90263198655864,-150.5951726356977
150.177290363477,-44.59737345200697,16.51145254293618,-154.548967867408
151.5716566510398,-44.7818252689958,15.82834487651883,-163.6905035307164
152.9789693523992,-45.09738187858684,15.27651553693365,-174.172032712834
154.3993486724336,-45.61955105556942,14.50684216680215,179.7874679705279
155.8329159321,-45.98539897597121,13.90627416764007,169.0160791865971
157.2797935787962,-46.63312024376066,12.83442227684086,154.5494340309541
158.74010519682,-46.97649130517163,12.5997041170036,149.3156230075154
160.2139755179244,-47.64737648979138,12.45949990651495,137.6304344276706
161.7015304319724,-47.16763419949692,11.02240598002719,131.5803113992274
163.2028969976891,-47.52080789606788,10.97680461433987,119.2337358365446
164.7182034535146,-48.15592559907206,11.32669571791716,109.2902112845346
166.2475792285576,-48.29512121919767,12.20777479831471,102.5896032595534
167.79115495365,-48.50425691310151,12.39425471633264,85.26659538755338
169.3490624725054,-49.65961324643207,13.86076495603996,73.48911408296917
170.9214348529799,-50.61592290083866,15.57356971183216,57.84935062225522
172.5084063984381,-51.38539191682366,16.60258211055803,47.16785586003429
174.1101126592249,-53.01605578943594,18.72250516164188,27.3598701248433
175.7266904442427,-55.25183268000647,20.48413707890915,14.47729850204474
177.3582778326381,-55.681117286151,20.65756475469599,-20.12750204688049
179.0050141855945,-56.43534556804362,21.15910185073468,-43.15885474475147
180.6670401582365,-55.31987458559379,19.76086459921873,-56.37420487375975
182.3444977116434,-54.48069025835899,18.33784975959034,-76.73376172441067
184.037530124975,-54.49239225136868,18.25395513610992,-82.08897093529872
185.7462820077097,-51.07036963262071,14.82337285957546,-101.6717653655301
187.470899311996,-50.37453015426308,14.18566127887016,-101.3452954671989
189.2115293451192,-49.79305839476311,14.29287963051869,-109.6480314436728
190.9683207820833,-48.57790979227184,12.99954416169309,-120.2301603456398
192.7414236783104,-47.50346764962813,12.3346160382375,-135.4372947757589
194.5309894824571,-46.5178051939033,10.87066692945348,-145.4176694348158
196.3371710493509,-45.76758914944159,10.90429280717443,-161.8048803576881
198.1601226530458,-45.33467392818753,11.06972695109755,-175.1691168524322
200,-45.38134204916262,11.31429633858877,170.3227057151192
