#Digilent WaveForms Network Analyzer - Bode
#Device Name: Discovery2NI
#Serial Number: SN:210321A36A5A
#Date Time: 2020-02-18 13:03:09.235
#Start: 50 Hz
#Stop: 200 Hz
#Steps: 151
#Wavegen: Wavegen1
#Amplification: 1 X
#Settle: 10 ms
#MinPeriods: 16 
#Channel: Channel 1
#Range: 5.4125 V
#Offset: -0.000188385 V
#Relative: no
#Channel: Channel 2
#Range: 5.49784 V
#Offset: 5.94039e-06 V
#Relative: yes

Frequency (Hz),Channel 1 Magnitude (dB),Channel 2 Magnitude (dB),Channel 2 Phase (*)
50.00000000000001,-22.36021071861674,-12.07303784821802,8.251707840527075
50.46424006059372,-22.25470298449728,-5.734520646996288,3.955887586068457
50.93279049786463,-21.93850914869596,-0.4485438510703292,2.543935053929346
51.40569133280334,-21.8027725738622,2.098564938555505,1.911925106389361
51.88298295798738,-21.83387884826414,3.332185667133472,1.270873321090932
52.36470614103135,-21.43910690215998,3.918614077894673,0.7967027086395149
52.85090202806904,-21.34126110762946,4.332715501963793,0.1073817957898555
53.3416121472679,-21.19699323502535,4.637248091637288,-0.1137638401798569
53.83687841237617,-20.92142223755731,4.842308684280111,-0.3252826719441515
54.33674312630292,-20.74788079708271,5.002429619757861,-0.7324263818465617
54.84124898473131,-20.52098707711699,5.166221698394945,-0.6039831918234029
55.35043907976544,-20.13619423571578,5.342651997773639,-0.7911292391916049
55.86435690361101,-19.84022225517553,5.496878231557735,-1.124653985977005
56.38304635229024,-19.81753090498148,5.676275907169764,-1.073630422042198
56.90655172939114,-19.54502083935526,5.803438689223229,-1.329328735117961
57.43491774985176,-18.94687164322421,5.988000082560162,-1.406890894850154
57.96818954377949,-18.59196343437115,6.141042200740618,-1.610224612934182
58.50641266030572,-18.38994666000208,6.325143198580728,-1.693870137845494
59.04963307147653,-17.67971566643903,6.472398903870732,-1.986561108071072
59.59789717617932,-17.22699776032056,6.646602622519257,-2.201108990463027
60.15125180410584,-16.58508299940491,6.817426789912313,-2.444333794008397
60.70974421975236,-15.84461343314968,7.009784522083451,-2.754177751383793
61.2734221264565,-14.9889145453459,7.242177552846547,-2.996119762391373
61.84233367047188,-14.20647759976339,7.44559517779242,-3.588597675087499
62.41652744508062,-13.42166796247676,7.669458584897271,-4.066550595573801
62.99605249474367,-12.78552875476498,7.922465217184756,-4.933939523436052
63.58095831929016,-12.55731648051597,8.172626437920528,-5.672257005035064
64.17129487814522,-12.63522883718302,8.407369159999027,-6.318349619424879
64.76711259459735,-12.82123822983419,8.641622787899541,-6.87653337980764
65.36846236010527,-13.15490489964499,8.849762423804474,-7.502724281911881
65.97539553864472,-13.44435992711172,9.102252828501129,-8.201602772550501
66.5879639710958,-13.88658028760003,9.32764621665158,-9.050952502032862
67.20621997967088,-14.34927261403863,9.567228955493839,-9.90005289323463
67.8302163723836,-14.76745231330693,9.813526028719391,-10.5726217305459
68.46000644755961,-15.22362785442251,10.05790214895276,-11.53084962095399
69.09564399838882,-15.75026982778335,10.33598187575934,-12.35665100723773
69.73718331752028,-16.42383454695186,10.65257238208833,-13.35721152978913
70.3846792016995,-17.21528706575766,10.95654000544229,-14.77728052963776
71.0381869564488,-18.11928934834271,11.28697463887113,-16.42174868969089
71.69776240079139,-18.89292275547711,11.54614543561118,-18.33032994053826
72.3634618720189,-19.6868748540033,11.78377721446431,-20.96164342580271
73.03534223050364,-20.33849927272947,11.98388833823879,-23.47939442851141
73.71346086455507,-20.87730415875905,12.10916275285942,-26.4169712575741
74.39787569532173,-21.2029488781476,12.14896814817755,-29.11467406511173
75.08864518173853,-21.4003677840023,12.23051901307012,-31.57282418540058
75.78582832551992,-21.48180252739195,12.27228234198513,-33.92228776184413
76.4894846761996,-21.47180007420386,12.33433567943384,-35.91787430844386
77.1996743362168,-21.65394770317721,12.48950438738634,-38.65052830200062
77.91645796605,-21.6839952393248,12.54173642606552,-41.39505963174302
78.63989678939812,-21.76498159811025,12.54047164966542,-44.73767263734766
79.37005259840998,-21.69574635868945,12.4470406511259,-48.25063354667881
80.10698775896223,-21.40107520121509,12.35282449695085,-50.62858267204882
80.85076521598623,-21.03805724448156,12.22594187350293,-53.0913319973931
81.60144849884456,-20.49334618713539,12.15292794217469,-56.08148318004118
82.35910172675733,-19.82342257028499,12.07898717788185,-57.92670738390038
83.12378961427879,-19.26185298517688,12.18501093000301,-60.6757395610931
83.89557747682503,-18.87948972032454,12.39146552874951,-64.37378200961149
84.67453123625273,-18.79683557071812,12.65124347079303,-70.47449768441815
85.46071742648998,-19.20726567555512,13.39594371194183,-79.93574154422254
86.25420319921908,-20.35830964387224,14.60128196852629,-96.47577725434473
87.05505632961243,-22.48455040539856,16.21351614174405,-127.3940989260614
87.8633452221214,-23.74567244243496,16.09329161821478,-174.7190206967454
88.67913891631906,-22.59607379461064,12.45983246873729,146.3764787795549
89.50250709279725,-21.39635919507056,8.605880450937679,122.864799579768
90.33352007911824,-20.71851408195087,5.813200534903778,103.9744850129121
91.17224885582169,-20.34639536955372,3.568680469311677,84.57240374280536
92.01876506248752,-20.32684066087877,1.757478269980858,65.12367081055241
92.87314100385487,-20.25930122865874,0.113541011583308,45.16827491514714
93.73544965599802,-20.75955082372147,-1.272210464147918,29.52361755626335
94.60576467255959,-21.33469754788117,-1.952547963200841,15.78005955838864
95.48416039104167,-22.0524381805461,-2.607248327901075,4.753160624649411
96.37071183915521,-22.7352674419091,-2.817744456128944,-0.20024207207166
97.26549474122857,-23.37182984623789,-2.254263406437876,-3.047767484937189
98.16858552467546,-24.01318831029531,-1.451010889536432,-2.949514614952434
99.08006132652297,-24.57503403906914,-0.6766920960317588,-4.654970156418361
100,-25.15517215899186,-0.33347084070422,-5.89740981130668
100.9284801211874,-25.68467638847277,0.6613993314230053,-4.107077388715581
101.8655809957292,-26.14726518782579,1.406421402037059,-3.375199669222033
102.8113826656067,-26.67369527760522,2.367128135859487,-4.542712791240376
103.7659659159747,-27.13126462563216,2.991850381630674,-8.009165723539503
104.7294122820627,-27.57788856420064,3.516092715164223,-10.17361163074352
105.7018040561381,-28.05848374928394,3.970138272892859,-8.348441763277208
106.6832242945358,-28.53941858856233,4.419070437618628,-11.4323646854946
107.6737568247523,-28.92396584066312,4.99287415125479,-11.72145809086817
108.6734862526058,-29.35505466619901,5.40852393036011,-11.4714023673248
109.6824979694626,-29.85879799156885,6.005144315550327,-12.34853994670938
110.7008781595309,-30.20974504100023,6.43693690208389,-13.05899728418954
111.728713807222,-30.73168957325123,6.779831797085941,-13.58701494320852
112.7660927045804,-31.20378794073001,7.288117566840788,-14.42487606623263
113.8131034587823,-31.58345285172443,7.784176156924389,-12.76225843158338
114.8698354997035,-31.74237186124036,8.697179676416679,-15.75077038075983
115.936379087559,-32.40798005680043,8.815105207112309,-15.95560179967724
117.0128253206114,-32.55209222478299,9.479067617016735,-17.8662896921124
118.0992661429531,-33.16027816204829,10.11746723143165,-18.79431177237214
119.1957943523586,-33.50075455130595,10.54650332505138,-19.66153533715432
120.3025036082117,-33.94925346060692,11.02363540741723,-20.81790916873808
121.4194884395047,-34.40898224880725,11.58862704705038,-22.40332244486277
122.546844252913,-34.61892522670577,12.17850519706409,-23.98942703261075
123.6846673409437,-35.21443261353835,12.8998073665945,-25.60480233091508
124.8330548901612,-35.28395718962275,13.26974235965249,-28.47857966814206
125.9921049894873,-35.71808012376733,13.80808294824295,-31.5951653598171
127.1619166385803,-36.16284433532477,14.31868750146708,-32.33933955556753
128.3425897562904,-36.98254515194404,15.0675361170452,-33.95775685322003
129.5342251891947,-38.20489853864986,16.25479299278119,-35.63847764061592
130.7369247202105,-39.35044271970197,17.43203642105735,-40.47670608180022
131.9507910772894,-39.82784990768081,18.25448101155857,-49.11901324460762
133.1759279421916,-40.03050891610641,18.64215734292628,-58.05093720000593
134.4124399593418,-39.71818832232839,18.50665191405666,-66.52597777072361
135.6604327447672,-40.14992951401922,19.00497124226075,-68.84861057038488
136.9200128951192,-41.68408935082254,20.73152986463844,-76.45703824280103
138.1912879967776,-41.16595650300717,19.7884434323873,-99.24394481893435
139.4743666350405,-40.80971478953706,18.90343570545839,-95.87324575685579
140.769358403399,-41.34620688628573,19.18686287636277,-97.5720343882503
142.0763739128976,-42.81985072602312,20.05590893950616,-112.8892129702162
143.3955248015828,-44.11625340949919,19.90867914529133,-120.5338026089157
144.7269237440378,-44.91262993238778,19.63231922138527,-130.8178084367215
146.0706844610073,-44.59925577772375,19.0830397988136,-142.6607331068262
147.4269217291101,-43.85553193921378,17.99700290983997,-153.1936365166375
148.7957513906435,-43.95827145617214,17.08293588205584,-156.0636141567419
150.177290363477,-44.2152119148386,16.41754139189624,-165.5468874138319
151.5716566510398,-44.6420428726406,16.10226304668678,-169.9509631786405
152.9789693523992,-45.18994368951975,15.62040740275571,-178.3072667443262
154.3993486724336,-45.87290529456253,15.06457394730005,169.8125309673334
155.8329159321,-46.41510785342099,14.22501449799948,160.8496452046584
157.2797935787962,-46.71100481571014,13.56675585074139,155.8701446097969
158.74010519682,-47.10445254707251,12.74910048948122,145.4929925156839
160.2139755179244,-47.26566413913284,12.2901461264784,133.8850591872886
161.7015304319724,-47.59189861892102,12.10201661275186,125.5317467239193
163.2028969976891,-47.17182049613803,11.28716178483459,117.8544961741858
164.7182034535146,-47.41348751151218,11.42461417687115,109.5119294826339
166.2475792285576,-47.92604670200958,11.90972565712242,99.31448940369329
167.79115495365,-48.535606216046,12.75190701311658,88.61665262920437
169.3490624725054,-49.45282042806191,13.96671142125625,72.50759834741609
170.9214348529799,-50.42041880506736,15.05781274492927,60.4118917404012
172.5084063984381,-52.00286201463788,16.75722249479811,49.29780504789369
174.1101126592249,-52.37501863913572,17.43999074359421,26.75617671066399
175.7266904442427,-53.91534438969104,18.58799657789071,9.25427818427886
177.3582778326381,-55.92492184908966,20.23924919415619,-22.69087410441199
179.0050141855945,-55.5649724921662,19.66397500185661,-43.05321064245209
180.6670401582365,-53.94573611601454,17.64137411671889,-61.05606333171038
182.3444977116434,-53.48159343642506,16.55626812687478,-73.40642473842551
184.037530124975,-51.75077990023431,15.26360954014774,-92.4106203426611
185.7462820077097,-50.10910838063392,13.55399263525442,-100.5391268711321
187.470899311996,-48.96725564061856,12.86773727530574,-106.9872250655304
189.2115293451192,-47.93267755691328,12.12349326580789,-120.2198797445951
190.9683207820833,-47.08410638854164,11.61428847255349,-128.0663642565096
192.7414236783104,-45.87002703984827,11.03852332995529,-137.5036433260881
194.5309894824571,-45.33064688989744,10.91533751133467,-149.6512545496314
196.3371710493509,-44.16542057569661,10.39959208335256,-167.6321531528452
198.1601226530458,-43.4227456872049,11.4124742904955,-177.1849564630174
200,-42.79531138025555,11.92020926640105,168.7428580438616
