#Digilent WaveForms Network Analyzer - Bode
#Device Name: Discovery2NI
#Serial Number: SN:210321A36A5A
#Date Time: 2020-02-18 13:28:07.387
#Start: 50 Hz
#Stop: 200 Hz
#Steps: 151
#Wavegen: Wavegen1
#Amplification: 1 X
#Settle: 10 ms
#MinPeriods: 16 
#Channel: Channel 1
#Range: 5.4125 V
#Offset: -0.000188385 V
#Relative: no
#Channel: Channel 2
#Range: 5.49784 V
#Offset: 5.94039e-06 V
#Relative: yes

Frequency (Hz),Channel 1 Magnitude (dB),Channel 2 Magnitude (dB),Channel 2 Phase (*)
50.00000000000001,-22.67228453554539,3.536421433478376,-2.879088264106912
50.46424006059372,-22.43911343561853,3.539867052271793,-1.529846151557535
50.93279049786463,-22.33952489640507,3.64217611564793,-1.142547175040264
51.40569133280334,-21.94071962637984,3.758712543260661,-0.6732105699418298
51.88298295798738,-21.65620787258869,3.945866082526034,-0.7688952093269279
52.36470614103135,-21.70144500495626,4.024366931416219,-0.7689278365395467
52.85090202806904,-21.53070233584151,4.205016797894319,-0.8654795273587368
53.3416121472679,-21.30447901320108,4.323118766231398,-0.7723888930696319
53.83687841237617,-21.14194190356049,4.411908312112624,-0.707912029703337
54.33674312630292,-20.77813351213745,4.599650671454062,-0.1228258821584767
54.84124898473131,-20.55760448899102,4.65375678775789,-1.408621903015671
55.35043907976544,-20.53638657709512,4.735482649259289,-1.462602828469926
55.86435690361101,-19.97416209990569,4.863033369907111,-1.510511885418254
56.38304635229024,-19.70269857195269,4.941904074839433,-1.397308819340834
56.90655172939114,-19.50970681142155,5.108820921115451,-1.001400263059509
57.43491774985176,-19.07866218099141,5.231859088201032,-1.329029398858004
57.96818954377949,-18.75280857914536,5.365245480649175,-1.344871979617551
58.50641266030572,-18.7111304342577,5.525001558236646,-1.225550423024913
59.04963307147653,-17.81709906654457,5.688558355574691,-1.550294942731938
59.59789717617932,-17.34026582705474,5.871491553228632,-1.727215586107334
60.15125180410584,-16.78682127620764,6.040781299970891,-2.082962726500607
60.70974421975236,-16.15086988359356,6.207893493784815,-2.319426944773141
61.2734221264565,-15.47778777687159,6.427783275163499,-2.877554422846885
61.84233367047188,-14.74846507166403,6.631783440819797,-3.356322075741502
62.41652744508062,-13.95320165239846,6.858976428313092,-3.839078209442249
62.99605249474367,-13.42515575935518,7.074568816766201,-4.524545260708365
63.58095831929016,-13.07597323294247,7.309136242315257,-5.233168699824802
64.17129487814522,-12.89171159366716,7.528892591833197,-5.889336899046384
64.76711259459735,-12.76432325923908,7.740955041270575,-6.457155902993321
65.36846236010527,-12.75147685335441,7.956017631773333,-6.921621711401826
65.97539553864472,-12.61782592476424,8.223671652990861,-7.649013545717111
66.5879639710958,-12.81904700177466,8.485601671426039,-8.202923392848179
67.20621997967088,-13.1594521747545,8.81891005072649,-8.716087825989092
67.8302163723836,-13.73966500330866,9.132612557920579,-9.49619223462436
68.46000644755961,-14.5581581759317,9.453390659074969,-10.52829950556381
69.09564399838882,-15.54347245839696,9.81028864854016,-11.99220411220867
69.73718331752028,-16.44712575111336,10.13942352506054,-13.45789728266334
70.3846792016995,-17.36290023791599,10.41926827806439,-15.3239932608735
71.0381869564488,-18.19300750675549,10.7075597156261,-17.43079002974514
71.69776240079139,-18.90343080522629,10.95462357331151,-19.83848060890628
72.3634618720189,-19.61447584891859,11.18692881901787,-22.41486665455486
73.03534223050364,-20.09842943788808,11.32568594072726,-24.81689196529443
73.71346086455507,-20.67389296031923,11.51410610400082,-28.00072548609648
74.39787569532173,-21.02724703381762,11.53778879707921,-30.7592934385556
75.08864518173853,-21.21158861889958,11.56143910223267,-33.81071814204851
75.78582832551992,-21.25233666087637,11.55807398113458,-36.137403277982
76.4894846761996,-21.21116037356909,11.52832136021859,-38.22106782310723
77.1996743362168,-21.12512920761824,11.63462603987936,-40.0929473526038
77.91645796605,-21.22746463262441,11.80552198287959,-42.43093003711651
78.63989678939812,-21.38421601756632,12.00982174535284,-45.96898439860423
79.37005259840998,-21.52773192040697,12.0639175616478,-49.95812760529074
80.10698775896223,-21.34238585974354,11.95889262034009,-54.26324247984516
80.85076521598623,-20.9214658090111,11.73405804286467,-57.95092256716204
81.60144849884456,-20.32319122649073,11.5127262336838,-61.09689926955733
82.35910172675733,-19.711429529454,11.2962026595273,-64.34044060948085
83.12378961427879,-19.03591544520793,11.19578739303175,-67.19473797950491
83.89557747682503,-18.56879164472648,11.14650939977957,-71.00265620176951
84.67453123625273,-18.39059917216359,11.27616771991014,-76.04902030654728
85.46071742648998,-18.67574994109912,11.72673238828392,-85.19790606871624
86.25420319921908,-19.65243695450163,12.77302207931256,-101.2625873576219
87.05505632961243,-21.17323928332194,13.93420074248419,-128.918494508372
87.8633452221214,-22.43847790356341,14.1814744351249,-172.6803081607928
88.67913891631906,-21.9221923730403,11.41255913975487,143.3025380638596
89.50250709279725,-21.01981459284498,8.242518287187648,116.0778436896974
90.33352007911824,-20.5532858443059,6.17033319784715,96.986711766703
91.17224885582169,-20.26273245241616,4.928846341327585,76.68830557462482
92.01876506248752,-20.10148162998027,4.288706369931466,58.07615329416217
92.87314100385487,-20.08209449131773,3.11025638550888,39.94966067245791
93.73544965599802,-20.53786580531128,1.865242611488235,26.76931724026468
94.60576467255959,-21.15261398179328,1.448039964612547,17.54269526905222
95.48416039104167,-21.82507798984605,0.6198985658103654,7.882200567094522
96.37071183915521,-22.53391024006559,0.7191589430378575,3.376360852444932
97.26549474122857,-23.1839897464119,1.080795114556898,-1.903314817579371
98.16858552467546,-23.87523060687379,1.005090116142457,-4.133463766402361
99.08006132652297,-24.48451177956528,1.335533204245054,-4.82120330288808
100,-25.13850157037905,1.771920901609941,-6.501706434677459
100.9284801211874,-25.62760248908404,2.296180268119277,-4.592732315702193
101.8655809957292,-26.18758452047877,2.818351483175854,-1.489351068612578
102.8113826656067,-26.72954594768263,3.794774825826097,-3.983381636260205
103.7659659159747,-27.08590999450293,4.204322957735262,-5.495040762113405
104.7294122820627,-27.53913726752218,4.513100031231111,-6.467365284385082
105.7018040561381,-27.87022000835721,4.88417920413187,-7.49446978251677
106.6832242945358,-28.31302535919403,5.321525574533441,-8.020490776494039
107.6737568247523,-28.85008255425092,5.872705257844202,-9.203021813263462
108.6734862526058,-29.25511172696309,6.298849108490957,-9.741528315398511
109.6824979694626,-29.67118130607684,6.687629463981827,-10.38147098097387
110.7008781595309,-30.05909230094045,7.205052015174468,-10.41192358538453
111.728713807222,-30.52336055713498,7.69419785703127,-12.93155104816711
112.7660927045804,-31.12931167129343,7.754974884774058,-12.87350626305432
113.8131034587823,-31.48898400076682,8.233318219206572,-12.13226724072658
114.8698354997035,-31.78305875035442,9.150014791431092,-14.68899771558438
115.936379087559,-32.35381955808358,9.312291750919412,-16.27794425594823
117.0128253206114,-32.74132269079641,9.863087495639867,-17.56617332295772
118.0992661429531,-33.04937242429854,10.37794200444967,-18.08475815951705
119.1957943523586,-33.66406008558513,10.94715437714874,-19.13114521003352
120.3025036082117,-34.12908875931652,11.3510897151585,-20.17817865873517
121.4194884395047,-34.45185418966835,11.84177889113445,-21.62095955388362
122.546844252913,-34.7402134433819,12.48707164262395,-23.52112608606626
123.6846673409437,-35.13295166511899,12.91339386851598,-24.8156318239231
124.8330548901612,-35.49051398451343,13.66917328353897,-26.99685155167856
125.9921049894873,-35.67812534381293,14.1697169772663,-30.27706163194219
127.1619166385803,-36.05361314936032,14.6896812992564,-34.11019568192351
128.3425897562904,-36.69905179800246,15.40558435747419,-35.97151324193617
129.5342251891947,-37.20257450280662,15.95522728967905,-40.08590728797627
130.7369247202105,-37.04209956415758,16.3724757457598,-43.90284988547336
131.9507910772894,-37.36560513292245,17.02956491054503,-48.33147654533147
133.1759279421916,-37.7091411065736,17.57971489994071,-51.38221660948268
134.4124399593418,-38.79967430590333,18.34990072098398,-53.05636328142648
135.6604327447672,-40.21536706308487,19.42847627125355,-59.45120836860673
136.9200128951192,-42.35733512705484,21.37534388832961,-70.69908371734695
138.1912879967776,-42.11694968101565,20.26846579231195,-91.83893181464343
139.4743666350405,-42.32064312511159,18.99407850388053,-94.61945497155688
140.769358403399,-42.52134548322628,19.59392438448355,-94.42209308657402
142.0763739128976,-42.81239165587681,20.17789777688645,-111.5243900471073
143.3955248015828,-43.56374253217017,19.68107088750649,-121.4325417429503
144.7269237440378,-43.8583634684085,18.248861962431,-128.6022850775342
146.0706844610073,-44.71738399020235,18.36297008004122,-130.0373055953085
147.4269217291101,-44.91211195186502,18.44108242930578,-144.6325160108171
148.7957513906435,-45.05544359401557,17.3269866109298,-152.6173152099807
150.177290363477,-44.78459105661447,16.88728411893825,-157.8934791823694
151.5716566510398,-44.80614125431683,15.95449898441682,-164.8767118812897
152.9789693523992,-45.30196815979861,15.42557584923362,-173.7546093060782
154.3993486724336,-45.92105761220892,14.95099666545018,175.5427826577975
155.8329159321,-45.98824437530234,13.60289345772476,166.3638403162642
157.2797935787962,-46.58423054883852,13.4317557712339,162.4394408748488
158.74010519682,-47.16160333232423,12.14413475328326,150.6450237675438
160.2139755179244,-47.16836709756377,11.54499498234878,138.0320426804269
161.7015304319724,-47.90805987251004,11.5656303254616,128.574753786557
163.2028969976891,-47.98984454463442,10.98927104476583,118.1631565106508
164.7182034535146,-48.54065916249177,11.40021438202817,109.5540281889806
166.2475792285576,-48.43127534384243,11.97905030382832,99.60204719556963
167.79115495365,-48.80754910891259,12.43532216108953,85.08649889595326
169.3490624725054,-49.92052869742358,13.86916611391413,73.43064523069333
170.9214348529799,-50.28870877847446,14.88474485471658,55.8702775339856
172.5084063984381,-51.7662449610401,16.73455182705729,40.11794752374885
174.1101126592249,-53.15640596807239,18.35071056931131,24.92742403598031
175.7266904442427,-55.05389562617265,20.10746863423496,5.721260077966278
177.3582778326381,-55.59278742327805,20.29487247271977,-23.79277492113102
179.0050141855945,-56.48531617024518,20.60026219098369,-42.88191440745561
180.6670401582365,-55.86921791438498,19.74139315541945,-61.22590885189113
182.3444977116434,-54.24385848906968,17.64057987404928,-72.42648265342561
184.037530124975,-52.93064246293154,16.69900546047639,-89.13270478518183
185.7462820077097,-52.628329469715,16.28457298300631,-98.39824071485145
187.470899311996,-50.59501494225043,14.02668187972409,-101.1136568801434
189.2115293451192,-49.69176067272883,13.87784458499767,-110.5434345437269
190.9683207820833,-48.943243304578,13.31612796273054,-123.7924677299584
192.7414236783104,-47.50564414022804,11.95663755263944,-136.4601180825752
194.5309894824571,-46.70642818346539,11.37105692033595,-150.2073884094633
196.3371710493509,-45.98489104046842,10.62377091932495,-159.8496936039599
198.1601226530458,-45.60471773122978,11.0831879175403,-174.14500010484
200,-46.14547959792237,11.34216867613491,167.715465223413
